name,type,start_time,duration,"ack","address","read","data"
"I2C","start",2023-08-12T00:08:32.116544760+00:00,1.6e-07,,,,
"I2C","start",2023-08-12T00:08:40.362286360+00:00,1.6e-07,,,,
"I2C","address",2023-08-12T00:08:40.362296920+00:00,0.00012112,true,0x1F,false,
"I2C","data",2023-08-12T00:08:40.362424280+00:00,0.00010976,true,,,0x42
"I2C","data",2023-08-12T00:08:40.362540120+00:00,0.00010992,true,,,0x44
"I2C","data",2023-08-12T00:08:40.362656120+00:00,0.00011088,true,,,0x47
"I2C","data",2023-08-12T00:08:40.362773080+00:00,0.00010976,true,,,0x49
"I2C","data",2023-08-12T00:08:40.362888920+00:00,0.00010976,true,,,0x49
"I2C","data",2023-08-12T00:08:40.363004920+00:00,0.00010976,true,,,0x4D
"I2C","data",2023-08-12T00:08:40.363120760+00:00,0.00010976,true,,,0x4F
"I2C","data",2023-08-12T00:08:40.363236600+00:00,0.00010976,true,,,0x3F
"I2C","stop",2023-08-12T00:08:40.363357720+00:00,1.6e-07,,,,
"I2C","start",2023-08-12T00:08:40.373409720+00:00,1.6e-07,,,,
"I2C","address",2023-08-12T00:08:40.373420280+00:00,0.0001216,true,0x1F,true,
"I2C","data",2023-08-12T00:08:40.373618840+00:00,9.6e-05,true,,,0x4B
"I2C","data",2023-08-12T00:08:40.373781400+00:00,9.216e-05,true,,,0x4B
"I2C","data",2023-08-12T00:08:40.373939480+00:00,9.2e-05,true,,,0x55
"I2C","data",2023-08-12T00:08:40.374097400+00:00,9.36e-05,true,,,0x78
"I2C","data",2023-08-12T00:08:40.374256920+00:00,9.2e-05,true,,,0x36
"I2C","data",2023-08-12T00:08:40.374415000+00:00,9.328e-05,true,,,0x76
"I2C","data",2023-08-12T00:08:40.374574040+00:00,9.488e-05,true,,,0x73
"I2C","data",2023-08-12T00:08:40.374735000+00:00,9.136e-05,false,,,0x30
"I2C","stop",2023-08-12T00:08:40.374899160+00:00,1.6e-07,,,,
