(1665678440.966322) can0 18FBD600#FFFFFFFFFFFFFFFF
(1665678440.971987) can0 0CF00203#CC0000FFFF0000FF
(1665678440.972194) can0 0CF00400#007D7D000000F07D
(1665678440.972393) can0 18FEDF00#7DFFFFFF7D0000FF
(1665678440.972732) can0 10FF0021#02000000FF3F4D3F
(1665678440.973009) can0 1892FE00#FFFFFFFFFF09FFFF
(1665678440.973297) can0 18F0090B#1F7D20687DE67D7D
(1665678440.973589) can0 18F0000F#DF7D7DFF0F7DFF7D
(1665678440.973898) can0 18F00100#FFFFFFFF00FFFFFF
(1665678440.974128) can0 18F00503#7D00007DFFFFFFFF
(1665678440.974426) can0 18FEE000#2700360027003600
(1665678440.974659) can0 18FEF100#FF0000FCFFFF00FF
(1665678440.975058) can0 18FEF200#000000000000FFFF
(1665678440.975321) can0 18FEEF00#00FFFF00FFFFFFFA
(1665678440.975581) can0 18FD0900#0000000033B70709
(1665678440.975875) can0 18FDE000#FFFFFFFFFFFFFFFF
(1665678440.976261) can0 18FEC100#D2034605D2034605
(1665678440.976538) can0 18FEE400#FF7FFFFFFFFFFFFF
(1665678440.976899) can0 18FEF500#C3FFFFF224FFFFFF
(1665678440.977258) can0 18FEF700#FFFFFFFFFD00FFFF
(1665678440.977425) can0 18FF7400#5D00FFFFFFCFFFFF
(1665678440.979714) can0 18F00E3D#00FB00FBFFFFFFFF
(1665678440.980177) can0 18F00F3D#00FB00FBFFFFFFFF
(1665678440.981737) can0 0CF00203#CC0000FFFF0000FF
(1665678440.981937) can0 0CF00400#007D7D000000F07D
(1665678440.982925) can0 18F0090B#1F7D20687DE67D7D
(1665678440.983655) can0 18FEF117#FFFFFFFFFFFFFFF0
(1665678440.985717) can0 18FEF121#F7FFFFCFFFFFFFFF
(1665678440.987723) can0 18FEF131#CFFFFFF700FFFF3F
(1665678440.991739) can0 0CF00203#CC0000FFFF0000FF
(1665678440.991995) can0 0CF00400#007D7D000000F07D
(1665678440.993060) can0 18F0090B#1F7D20687DE67D7D
(1665678440.994597) can0 14F00121#FFFFFFFFFFFFFFFF
(1665678441.001645) can0 0CF00300#D10000FFFF0C00FF
(1665678441.001874) can0 0CF00203#CC0000FFFF0000FF
(1665678441.002178) can0 0CF00400#007D7D000000F07D
(1665678441.002946) can0 18F0090B#1F7D20687DE67D7D
(1665678441.006176) can0 0CF00A01#00000000FFFFFFFF
(1665678441.006491) can0 10F01A01#409CFFFFFFFFFFFF
(1665678441.010456) can0 0CF0233D#0000FFFFFF0CFFFF
(1665678441.011687) can0 0C0A0021#FCFFFFFFFFFFFFFF
(1665678441.011873) can0 0CF00203#CC0000FFFF0000FF
(1665678441.012418) can0 0CF00400#007D7D000000F07D
(1665678441.013166) can0 18F0090B#1F7D20687DE67D7D
(1665678441.013821) can0 14F0010B#0F00FFFFFF0DFFFF
(1665678441.014914) can0 18FEBF0B#00007D7D7D7DFFFF
(1665678441.015710) can0 14FDC40B#1F085FFFFFFFFFFF
(1665678441.017828) can0 14FE4F0B#FF00FFFFFFFFFFFF
(1665678441.019823) can0 14FEF031#FFFFFFFFFFFFCCFF
(1665678441.021829) can0 14FF07E6#FFFFFFFFFFFFFFFF
(1665678441.022104) can0 0CF00203#CC0000FFFF0000FF
(1665678441.022281) can0 0CF00400#007D7D000000F07D
(1665678441.022578) can0 10FF0021#02000000FF3F4D3F
(1665678441.022878) can0 18FEDF00#7DFFFFFF7D0000FF
(1665678441.023177) can0 18F0090B#1F7D20687DE67D7D
(1665678441.025757) can0 1CDE0317#F0FFFFFFFFFFFFFF
(1665678441.029891) can0 18F00E3D#00FB00FBFFFFFFFF
(1665678441.030081) can0 18F00F3D#00FB00FBFFFFFFFF
(1665678441.031758) can0 0CF00203#CC0000FFFF0000FF
(1665678441.032181) can0 0CF00400#007D7D000000F07D
(1665678441.033211) can0 18F0090B#1F7D20687DE67D7D
(1665678441.035077) can0 14FF0097#FFFFC3E501CECE00
(1665678441.037830) can0 18F00131#FFFFCFFFFFFFFFFF
(1665678441.041793) can0 0CF00203#CC0000FFFF0000FF
(1665678441.042213) can0 0CF00400#007D7D000000F07D
(1665678441.043089) can0 18F0090B#1F7D20687DE67D7D
(1665678441.051773) can0 0CF00300#D10000FFFF0C00FF
(1665678441.051890) can0 0CF00203#CC0000FFFF0000FF
(1665678441.052258) can0 0CF00400#007D7D000000F07D
(1665678441.053129) can0 18F0090B#1F7D20667DE67D7D
(1665678441.056238) can0 0CF00A01#00000000FFFFFFFF
(1665678441.056737) can0 10F01A01#409CFFFFFFFFFFFF
(1665678441.057012) can0 10FCFD01#FFFFFFFF00000000
(1665678441.057342) can0 18FD9401#6841FFFF00000302
(1665678441.057578) can0 1CFE9201#FFE0ADFFFFFFFFFF
(1665678441.058923) can0 18FE9601#FFFFFFFFFF00FFFF
(1665678441.060219) can0 0CF0233D#0000FFFFFF0CFFFF
(1665678441.062029) can0 0CF00203#CC0000FFFF0000FF
(1665678441.062183) can0 0CF00400#007D7D000000F07D
(1665678441.063196) can0 18F0090B#1F7D20667DE67D7D
(1665678441.066471) can0 18FBD600#FFFFFFFFFFFFFFFF
(1665678441.072122) can0 0CF00203#CC0000FFFF0000FF
(1665678441.072314) can0 0CF00400#007D7D000000F07D
(1665678441.072566) can0 18FEDF00#7DFFFFFF7D0000FF
(1665678441.072856) can0 10FF0021#02000000FF3F4D3F
(1665678441.073178) can0 1892FE00#FFFFFFFFFF09FFFF
(1665678441.073487) can0 18F0090B#1F7D20667DE67D7D
(1665678441.073713) can0 18F0000F#DF7D7DFF0F7DFF7D
(1665678441.073960) can0 18F00100#FFFFFFFF00FFFFFF
(1665678441.074211) can0 18F00503#7D00007DFFFFFFFF
(1665678441.074521) can0 18FEE000#2700360027003600
(1665678441.074802) can0 18FEF100#FF0000FCFFFF00FF
(1665678441.075024) can0 18FEF200#000000000000FFFF
(1665678441.079883) can0 18F00E3D#00FB00FBFFFFFFFF
(1665678441.080449) can0 18F00F3D#00FB00FBFFFFFFFF
(1665678441.082183) can0 0CF00203#CC0000FFFF0000FF
(1665678441.082197) can0 0CF00400#007D7D000000F07D
(1665678441.083232) can0 18F0090B#1F7D20657DE67D7D
(1665678441.083870) can0 18FEF117#FFFFFFFFFFFFFFF0
(1665678441.085846) can0 18FEF121#F7FFFFCFFFFFFFFF
(1665678441.088339) can0 18FEF131#CFFFFFF700FFFF3F
(1665678441.092540) can0 0CF00203#CC0000FFFF0000FF
(1665678441.092562) can0 0CF00400#007D7D000000F07D
(1665678441.093368) can0 18F0090B#1F7D20667DE67D7D
(1665678441.095020) can0 14F00121#FFFFFFFFFFFFFFFF
(1665678441.102301) can0 0CF00300#D10000FFFF0C00FF
(1665678441.102323) can0 0CF00203#CC0000FFFF0000FF
(1665678441.102326) can0 1CECFF0F#20130003FFE1FE00
(1665678441.102813) can0 0CF00400#007D7D000000F07D
(1665678441.103053) can0 18FD0900#0000000033B70709
(1665678441.103363) can0 18F0090B#1F7D20667DE67D7D
(1665678441.103509) can0 18FD7C00#FF80C13030FF1FFF
(1665678441.103782) can0 18FECA03#03FF00000000FFFF
(1665678441.104224) can0 18FECA11#03FF00000000FFFF
(1665678441.104628) can0 18FCDC00#FFFFFFFFFFFFFFFF
(1665678441.106339) can0 0CF00A01#00000000FFFFFFFF
(1665678441.106587) can0 10F01A01#409CFFFFFFFFFFFF
(1665678441.111142) can0 0CF0233D#0000FFFFFF0CFFFF
(1665678441.111825) can0 0C0A0021#FCFFFFFFFFFFFFFF
(1665678441.112187) can0 0CF00203#CC0000FFFF0000FF
(1665678441.112465) can0 1CECFF00#20270006FFE3FE00
(1665678441.112792) can0 0CF00400#007D7D000000F07D
(1665678441.113308) can0 18F0090B#1F7D20667DE67D7D
(1665678441.113973) can0 14F0010B#0F00FFFFFF0DFFFF
(1665678441.114991) can0 18FEBF0B#00007D7D7D7DFFFF
(1665678441.116144) can0 14FDC40B#1F085FFFFFFFFFFF
(1665678441.118472) can0 14FE4F0B#FF00FFFFFFFFFFFF
(1665678441.120379) can0 14FEF031#FFFFFFFFFFFFCCFF
(1665678441.122468) can0 14FF07E6#FFFFFFFFFFFFFFFF
(1665678441.122490) can0 0CF00203#CC0000FFFF0000FF
(1665678441.122493) can0 0CF00400#007D7D000000F07D
(1665678441.122790) can0 10FF0021#02000000FF3F4D3F
(1665678441.123092) can0 18FEDF00#7DFFFFFF7D0000FF
(1665678441.123371) can0 18F0090B#1F7D20687DE67D7D
(1665678441.123823) can0 14FF08E6#FFFFFFFFFFFFFFFF
(1665678441.126195) can0 18E00017#FFFFFFFFFFF0FFFF
(1665678441.128488) can0 18E00019#00FFFFFCFFFFFFFF
(1665678441.130470) can0 18E00031#FFFFFFFFFFFFFFFF
(1665678441.130492) can0 18F00E3D#00FB00FBFFFFFFFF
(1665678441.130495) can0 18F00F3D#00FB00FBFFFFFFFF
(1665678441.130868) can0 18FECA3D#43FF900C1504FFFF
(1665678441.131545) can0 18FD8C3D#00001100FFFFFFFF
(1665678441.131675) can0 18FDB23D#0000462500000000
(1665678441.132064) can0 18E0FF21#FFFFFFFFFFFFFFFF
(1665678441.132470) can0 0CF00203#CC0000FFFF0000FF
(1665678441.132702) can0 0CF00400#007D7D000000F07D
(1665678441.133059) can0 18F0090B#1F7D20687DE67D7D
(1665678441.133332) can0 18FFA63D#00FF00000000FFFF
(1665678441.136882) can0 14FF0097#FFFFC3E501CECE00
(1665678441.137060) can0 18FBF53D#FFFFFFFF0000FFFF
(1665678441.138336) can0 18F00131#FFFFCFFFFFFFFFFF
(1665678441.142497) can0 18FECA0B#C0FF00000000FFFF
(1665678441.142518) can0 0CF00203#CC0000FFFF0000FF
(1665678441.142522) can0 0CF00400#007D7D000000F07D
(1665678441.143249) can0 18F0090B#1F7D20697DE67D7D
(1665678441.143948) can0 18FECA13#00FF0000007FFFFF
(1665678441.146497) can0 18FECA17#00FF00000000FFFF
(1665678441.148372) can0 18FECA19#00FF0000007FFFFF
(1665678441.150465) can0 18FECA21#00FF0000007FFFFF
(1665678441.152329) can0 0CF00300#D10000FFFF0C00FF
(1665678441.152351) can0 18FECA2A#00FF0000007FFFFF
(1665678441.152355) can0 0CF00203#CC0000FFFF0000FF
(1665678441.152746) can0 0CF00400#007D7D000000F07D
(1665678441.153229) can0 18F0090B#1F7D20697DE67D7D
(1665678441.154061) can0 18FECA3A#00FF0000007FFFFF
(1665678441.156320) can0 18FECA45#00FF0000007FFFFF
(1665678441.156342) can0 0CF00A01#00000000FFFFFFFF
(1665678441.156876) can0 10F01A01#409CFFFFFFFFFFFF
(1665678441.157062) can0 18FECA01#43FF7F020E02FFFF
(1665678441.157314) can0 10FCFD01#FFFFFFFF00000000
(1665678441.157651) can0 18FD9401#6841FFFF00000302
(1665678441.157962) can0 18FECA4A#00FF0000007FFFFF
(1665678441.158270) can0 1CFE9201#FFDCADFFFFFFFFFF
(1665678441.159364) can0 18FE9601#FFFFFFFFFF00FFFF
(1665678441.159689) can0 18FD6501#DD01FFFFFFFFFFFF
(1665678441.160120) can0 18FECA7F#00FF0000007FFFFF
(1665678441.160428) can0 0CF0233D#0000FFFFFF0CFFFF
(1665678441.160794) can0 18FD413D#FFFFFFFFFCFCFCFC
(1665678441.161121) can0 18FDA101#B303FFFFFFFF00FF
(1665678441.161144) can0 18FDAA01#FFFFFFFFFFFFFFFF
(1665678441.161416) can0 18FDD001#FFFFFF0030FFFFFF
(1665678441.161778) can0 18FECA85#00FF0000007FFFFF
(1665678441.162079) can0 18FD6601#FF3DFFFFFFFFFFFF
(1665678441.162264) can0 0CF00203#CC0000FFFF0000FF
(1665678441.162595) can0 1CEBFF0F#010300FFFFFFFFFF
(1665678441.162907) can0 0CF00400#007D7D000000F07D
(1665678441.163144) can0 18F0090B#1F7D20697DE67D7D
(1665678441.163420) can0 18FEDB01#4601460146014601
(1665678441.163682) can0 18FECAE8#00FF00000000FFFF
(1665678441.164612) can0 18FE6901#4725E024FFFF2525
(1665678441.165651) can0 18FECAEC#00FF0000007FFFFF
(1665678441.166363) can0 18FE9701#FFFFFFFFFFFFFFFF
(1665678441.166622) can0 18FE9801#6027FFFFFFFFFFFF
(1665678441.166984) can0 18FE9901#FFFFFFFFFFFFFFFF
(1665678441.167225) can0 18FE9A01#3825FFFFFFFFFFFF
(1665678441.167628) can0 18FEDD01#FF0000FFFFFFFFFF
(1665678441.167832) can0 18FECAED#00FF0000007FFFFF
(1665678441.168317) can0 18FFAA01#0000EC05F27C6564
(1665678441.168751) can0 18FFAB01#080006007DFA6810
(1665678441.169173) can0 18FFAC01#000000190B00F0FF
(1665678441.169460) can0 18FFAD01#6900FFFF0000FFFF
(1665678441.169752) can0 18FFAE01#00FF00000000FFFF
(1665678441.170291) can0 18FDD301#FFFFFFFFFFFFFFFF
(1665678441.170576) can0 18FE5600#F93CFFFF1F1FFFFF
(1665678441.170861) can0 18FFA53D#FFFF511B43254325
(1665678441.171154) can0 18FEA400#FFFF6025FA7CFFFF
(1665678441.171410) can0 18FEEE00#3E3DD424FFFF40FF
(1665678441.171716) can0 18FEE419#FFFFFCFFFFFFFFFF
(1665678441.171994) can0 18FBD600#FFFFFFFFFFFFFFFF
(1665678441.172358) can0 0CF00203#CC0000FFFF0000FF
(1665678441.172571) can0 10FF0021#02000000FF3F4D3F
(1665678441.172908) can0 0CF00400#007D7D000000F07D
(1665678441.173164) can0 18F0090B#1F7D20687DE67D7D
(1665678441.173457) can0 18FEDF00#7DFFFFFF7D0000FF
(1665678441.173749) can0 1892FE00#FFFFFFFFFF09FFFF
(1665678441.174053) can0 18F0000F#DF7D7DFF0F7DFF7D
(1665678441.174364) can0 18F00100#FFFFFFFF00FFFFFF
(1665678441.174673) can0 18F00503#7D00007DFFFFFFFF
(1665678441.174955) can0 18FEE000#2700360027003600
(1665678441.175285) can0 18FEF100#FF0000FCFFFF00FF
(1665678441.175590) can0 18FEF200#000000000000FFFF
(1665678441.179696) can0 18F00E3D#00FB00FBFFFFFFFF
(1665678441.180128) can0 18F00F3D#00FB00FBFFFFFFFF
(1665678441.180392) can0 18FD3E00#FFFFFF4325FFFFFF
(1665678441.181673) can0 0CF00203#CC0000FFFF0000FF
(1665678441.181915) can0 1CEBFF00#010013C5803BC720
(1665678441.182249) can0 0CF00400#007D7D000000F07D
(1665678441.182941) can0 18F0090B#1F7D20687DE67D7D
(1665678441.183639) can0 18FEF117#FFFFFFFFFFFFFFF0
(1665678441.185674) can0 18FEF121#F7FFFFCFFFFFFFFF
(1665678441.187602) can0 18FEF131#CFFFFFF700FFFF3F
(1665678441.190310) can0 18FD9B3D#FFFFFFFFFFFFFFFF
(1665678441.191632) can0 18FF0025#F0FF640A27003600
(1665678441.191890) can0 0CF00203#CC0000FFFF0000FF
(1665678441.192231) can0 0CF00400#007D7D000000F07D
(1665678441.192983) can0 18F0090B#1F7D20687DE67D7D
(1665678441.194629) can0 14F00121#FFFFFFFFFFFFFFFF
(1665678441.195667) can0 1CFEC347#FFFFFFFFFFFFFFFF
(1665678441.201540) can0 0CF00300#D10000FFFF0C00FF
(1665678441.202044) can0 0CF00203#CC0000FFFF0000FF
(1665678441.202279) can0 0CF00400#007D7D000000F07D
(1665678441.203015) can0 18F0090B#1F7D20687DE67D7D
(1665678441.206156) can0 0CF00A01#00000000FFFFFFFF
(1665678441.206780) can0 10F01A01#409CFFFFFFFFFFFF
(1665678441.210467) can0 0CF0233D#0000FFFFFF0CFFFF
(1665678441.211860) can0 0C0A0021#FCFFFFFFFFFFFFFF
(1665678441.212103) can0 0CF00203#CC0000FFFF0000FF
(1665678441.212420) can0 18FF0097#464D2039342E3120
(1665678441.212669) can0 0CF00400#007D7D000000F07D
(1665678441.213214) can0 18F0090B#1F7D20687DE67D7D
(1665678441.213849) can0 14F0010B#0F00FFFFFF0DFFFF
(1665678441.215441) can0 18FEBF0B#00007D7D7D7DFFFF
(1665678441.215777) can0 14FDC40B#1F085FFFFFFFFFFF
(1665678441.217852) can0 14FE4F0B#FF00FFFFFFFFFFFF
(1665678441.219851) can0 14FEF031#FFFFFFFFFFFFCCFF
(1665678441.220680) can0 18FD3C3D#0000FFFFFFCCFFFF
(1665678441.221886) can0 14FF07E6#FFFFFFFFFFFFFFFF
(1665678441.222132) can0 0CF00203#CC0000FFFF0000FF
(1665678441.222442) can0 1CEBFF0F#02FFFFFFFFFFFFFF
(1665678441.222700) can0 10FF0021#02000000FF3F4D3F
(1665678441.222987) can0 0CF00400#007D7D000000F07D
(1665678441.223175) can0 18F0090B#1F7D20687DE67D7D
(1665678441.223438) can0 18FEDF00#7DFFFFFF7D0000FF
(1665678441.228551) can0 14FF0097#FFFFC3E501CECE00
(1665678441.229951) can0 18F00E3D#00FB00FBFFFFFFFF
(1665678441.230186) can0 18F00F3D#00FB00FBFFFFFFFF
(1665678441.231942) can0 0CF00203#CC0000FFFF0000FF
(1665678441.232180) can0 0CF00400#007D7D000000F07D
(1665678441.233239) can0 18F0090B#1F7D20687DE67D7D
(1665678441.237878) can0 18F00131#FFFFCFFFFFFFFFFF
(1665678441.240470) can0 18FFA33D#0000FFFF8010FFFF
(1665678441.241881) can0 0CF00203#CC0000FFFF0000FF
(1665678441.242133) can0 1CEBFF00#021DE64027E96031
(1665678441.242517) can0 0CF00400#007D7D000000F07D
(1665678441.243218) can0 18F0090B#1F7D20697DE67D7D
(1665678441.250713) can0 18FFA43D#D606D606FFFFFCFF
(1665678441.251799) can0 0CF00300#D10000FFFF0C00FF
(1665678441.252013) can0 0CF00203#CC0000FFFF0000FF
(1665678441.252347) can0 0CF00400#007D7D000000F07D
(1665678441.253228) can0 18F0090B#1F7D20697DE67D7D
(1665678441.256229) can0 0CF00A01#00000000FFFFFFFF
(1665678441.256618) can0 10F01A01#409CFFFFFFFFFFFF
(1665678441.257097) can0 10FCFD01#FFFFFFFF00000000
(1665678441.257324) can0 18FD9401#6841FFFF00000302
(1665678441.257560) can0 1CFE9201#FFDCADFFFFFFFFFF
(1665678441.258954) can0 18FE9601#FFFFFFFFFF00FFFF
(1665678441.260230) can0 0CF0233D#0000FFFFFF0CFFFF
(1665678441.260583) can0 18FFA23D#0000F626E803340F
(1665678441.262004) can0 0CF00203#CC0000FFFF0000FF
(1665678441.262188) can0 0CF00400#007D7D000000F07D
(1665678441.263809) can0 18F0090B#1F7D20697DE67D7D
(1665678441.266717) can0 18FBD600#FFFFFFFFFFFFFFFF
(1665678441.271091) can0 18FFA03D#1A0D1A00190000FF
(1665678441.272024) can0 0CF00203#CC0000FFFF0000FF
(1665678441.272295) can0 0CF00400#007D7D000000F07D
(1665678441.272585) can0 18FEDF00#7DFFFFFF7D0000FF
(1665678441.272888) can0 10FF0021#02000000FF3F4D3F
(1665678441.273319) can0 1892FE00#FFFFFFFFFF09FFFF
(1665678441.273422) can0 18F0090B#1F7D20697DD17D7D
(1665678441.273720) can0 18F0000F#DF7D7DFF0F7DFF7D
(1665678441.273982) can0 18F00100#FFFFFFFF00FFFFFF
(1665678441.274228) can0 18F00503#7D00007DFFFFFFFF
(1665678441.274574) can0 18FEE000#2700360027003600
(1665678441.274930) can0 18FEF100#FF0000FCFFFF00FF
(1665678441.275059) can0 18FEF200#000000000000FFFF
(1665678441.279842) can0 18F00E3D#00FB00FBFFFFFFFF
(1665678441.280416) can0 18F00F3D#00FB00FBFFFFFFFF
(1665678441.280666) can0 18FD203D#46254625FFFFFFFF
(1665678441.280955) can0 18FFA13D#8B028B021AFFFF30
(1665678441.281801) can0 0CF00203#CC0000FFFF0000FF
(1665678441.282157) can0 1CEBFF0F#03FFFFDB05FFFFFF
(1665678441.282311) can0 0CF00400#007D7D000000F07D
(1665678441.282922) can0 18F0090B#1F7D20697DD17D7D
(1665678441.283677) can0 18FEF117#FFFFFFFFFFFFFFF0
(1665678441.285817) can0 18FEF121#F7FFFFCFFFFFFFFF
(1665678441.287641) can0 18FEF131#CFFFFFF700FFFF3F
(1665678441.291884) can0 0CF00203#CC0000FFFF0000FF
(1665678441.292077) can0 0CF00400#007D7D000000F07D
(1665678441.293160) can0 18F0090B#1F7D20687DD17D7D
(1665678441.294816) can0 14F00121#FFFFFFFFFFFFFFFF
(1665678441.301760) can0 0CF00300#D10000FFFF0C00FF
(1665678441.301984) can0 18FEE925#0000000058950400
(1665678441.302301) can0 0CF00203#CC0000FFFF0000FF
(1665678441.302395) can0 1CEBFF00#03EA0F3DFFFF1009
(1665678441.302722) can0 0CF00400#007D7D000000F07D
(1665678441.302971) can0 18F0090B#1F7D20687DD17D7D
(1665678441.306300) can0 0CF00A01#00000000FFFFFFFF
(1665678441.306555) can0 10F01A01#409CFFFFFFFFFFFF
(1665678441.310342) can0 0CF0233D#0000FFFFFF0CFFFF
(1665678441.311703) can0 0C0A0021#FCFFFFFFFFFFFFFF
(1665678441.311874) can0 0CF00203#CC0000FFFF0000FF
(1665678441.312380) can0 0CF00400#007D7D000000F07D
(1665678441.313192) can0 18F0090B#1F7D20687DD17D7D
(1665678441.313889) can0 14F0010B#0F00FFFFFF0DFFFF
(1665678441.314917) can0 18FEBF0B#00007D7D7D7DFFFF
(1665678441.315834) can0 14FDC40B#1F085FFFFFFFFFFF
(1665678441.317828) can0 14FE4F0B#FF00FFFFFFFFFFFF
(1665678441.319853) can0 14FEF031#FFFFFFFFFFFFCCFF
(1665678441.321859) can0 14FF07E6#FFFFFFFFFFFFFFFF
(1665678441.322087) can0 0CF00203#CC0000FFFF0000FF
(1665678441.322389) can0 0CF00400#007D7D000000F07D
(1665678441.322693) can0 10FF0021#02000000FF3F4D3F
(1665678441.322889) can0 18FEDF00#7DFFFFFF7D0000FF
(1665678441.323176) can0 18F0090B#1F7D20687DD17D7D
(1665678441.329764) can0 18F00E3D#00FB00FBFFFFFFFF
(1665678441.330036) can0 18F00F3D#00FB00FBFFFFFFFF
(1665678441.330529) can0 14FF0097#FFFFC3E501CECE00
(1665678441.331789) can0 0CF00203#CC0000FFFF0000FF
(1665678441.332041) can0 0CF00400#007D7D000000F07D
(1665678441.333084) can0 18F0090B#1F7D20697DD17D7D
(1665678441.337717) can0 18F00131#FFFFCFFFFFFFFFFF
(1665678441.341783) can0 0CF00203#CC0000FFFF0000FF
(1665678441.342047) can0 0CF00400#007D7D000000F07D
(1665678441.343060) can0 18F0090B#1F7D20697DD17D7D
(1665678441.351723) can0 0CF00300#D10000FFFF0C00FF
(1665678441.352016) can0 0CF00203#CC0000FFFF0000FF
(1665678441.352258) can0 0CF00400#007D7D000000F07D
(1665678441.353131) can0 18F0090B#1F7D20697DD17D7D
(1665678441.356218) can0 0CF00A01#00000000FFFFFFFF
(1665678441.356672) can0 10F01A01#409CFFFFFFFFFFFF
(1665678441.356945) can0 10FCFD01#FFFFFFFF00000000
(1665678441.357232) can0 18FD9401#6841FFFF00000302
(1665678441.357558) can0 1CFE9201#FFDCADFFFFFFFFFF
(1665678441.358836) can0 18FE9601#FFFFFFFFFF00FFFF
(1665678441.360205) can0 0CF0233D#0000FFFFFF0CFFFF
(1665678441.361759) can0 0CF00203#CC0000FFFF0000FF
(1665678441.361973) can0 1CEBFF00#040F4C32FFFFFFFF
(1665678441.362272) can0 0CF00400#007D7D000000F07D
(1665678441.363055) can0 18F0090B#1F7D20697DD17D7D
(1665678441.366061) can0 18FBD600#FFFFFFFFFFFFFFFF
(1665678441.371894) can0 0CF00203#CC0000FFFF0000FF
(1665678441.372133) can0 0CF00400#007D7D000000F07D
(1665678441.372388) can0 18FEDF00#7DFFFFFF7D0000FF
(1665678441.372728) can0 10FF0021#02000000FF3F4D3F
(1665678441.372979) can0 1892FE00#FFFFFFFFFF09FFFF
(1665678441.373291) can0 18F0090B#1F7D20697DD17D7D
(1665678441.373567) can0 18F0000F#DF7D7DFF0F7DFF7D
(1665678441.373850) can0 18F00100#FFFFFFFF00FFFFFF
(1665678441.374122) can0 18F00503#7D00007DFFFFFFFF
(1665678441.374391) can0 18FEE000#2700360027003600
(1665678441.374652) can0 18FEF100#FF0000FCFFFF00FF
(1665678441.375065) can0 18FEF200#000000000000FFFF
(1665678441.379889) can0 18F00E3D#00FB00FBFFFFFFFF
(1665678441.380232) can0 18F00F3D#00FB00FBFFFFFFFF
(1665678441.381793) can0 0CF00203#CC0000FFFF0000FF
(1665678441.382027) can0 0CF00400#007D7D000000F07D
(1665678441.383104) can0 18F0090B#1F7D20687DD17D7D
(1665678441.383833) can0 18FEF117#FFFFFFFFFFFFFFF0
(1665678441.385823) can0 18FEF121#F7FFFFCFFFFFFFFF
(1665678441.387822) can0 18FEF131#CFFFFFF700FFFF3F
(1665678441.391832) can0 0CF00203#CC0000FFFF0000FF
(1665678441.392112) can0 0CF00400#007D7D000000F07D
(1665678441.393149) can0 18F0090B#1F7D20687DD17D7D
(1665678441.394801) can0 14F00121#FFFFFFFFFFFFFFFF
(1665678441.401761) can0 0CF00300#D10000FFFF0C00FF
(1665678441.401954) can0 0CF00203#CC0000FFFF0000FF
(1665678441.402243) can0 0CF00400#007D7D000000F07D
(1665678441.403058) can0 18F0090B#1F7D20687DD17D7D
(1665678441.406273) can0 0CF00A01#00000000FFFFFFFF
(1665678441.406593) can0 10F01A01#409CFFFFFFFFFFFF
(1665678441.410401) can0 0CF0233D#0000FFFFFF0CFFFF
(1665678441.411712) can0 0C0A0021#FCFFFFFFFFFFFFFF
(1665678441.411952) can0 0CF00203#CC0000FFFF0000FF
(1665678441.412366) can0 0CF00400#007D7D000000F07D
(1665678441.413150) can0 18F0090B#1F7D20667DD17D7D
(1665678441.413818) can0 14F0010B#0F00FFFFFF0DFFFF
(1665678441.414887) can0 18FEBF0B#00007D7D7D7DFFFF
(1665678441.415714) can0 14FDC40B#1F085FFFFFFFFFFF
(1665678441.417775) can0 14FE4F0B#FF00FFFFFFFFFFFF
(1665678441.419787) can0 14FEF031#FFFFFFFFFFFFCCFF
(1665678441.421808) can0 14FF07E6#FFFFFFFFFFFFFFFF
(1665678441.422045) can0 0CF00203#CC0000FFFF0000FF
(1665678441.422329) can0 1CEBFF00#05FFFF3B01FFFFFF
(1665678441.422619) can0 10FF0021#02000000FF3F4D3F
(1665678441.422931) can0 0CF00400#007D7D000000F07D
(1665678441.423182) can0 18F0090B#1F7D20667DE67D7D
(1665678441.423413) can0 18FEDF00#7DFFFFFF7D0000FF
(1665678441.429789) can0 18F00E3D#00FB00FBFFFFFFFF
(1665678441.430106) can0 18F00F3D#00FB00FBFFFFFFFF
(1665678441.431756) can0 18FDB300#FFFF4625FFFFFFFF
(1665678441.432024) can0 14FF0097#FFFFC3E501CECE00
(1665678441.432291) can0 0CF00203#CC0000FFFF0000FF
(1665678441.432590) can0 0CF00400#007D7D000000F07D
(1665678441.432869) can0 18FDB43D#46254625FFFFFFFF
(1665678441.433128) can0 18F0090B#1F7D20657DE67D7D
(1665678441.433289) can0 18FEF600#FF004130FFFFFFFF
(1665678441.433620) can0 18FEFC00#FFC6FFFFFFFFFFFF
(1665678441.437726) can0 18F00131#FFFFCFFFFFFFFFFF
(1665678441.441843) can0 0CF00203#CC0000FFFF0000FF
(1665678441.442098) can0 0CF00400#007D7D000000F07D
(1665678441.443143) can0 18F0090B#1F7D20657DE67D7D
(1665678441.451742) can0 0CF00300#D10000FFFF0C00FF
(1665678441.452014) can0 0CF00203#CC0000FFFF0000FF
(1665678441.452285) can0 0CF00400#007D7D000000F07D
(1665678441.453137) can0 18F0090B#1F7D20657DE67D7D
(1665678441.456015) can0 0CF00A01#00000000FFFFFFFF
(1665678441.456450) can0 10F01A01#409CFFFFFFFFFFFF
(1665678441.456743) can0 10FCFD01#FFFFFFFF00000000
(1665678441.457075) can0 18FD9401#6841FFFF00000302
(1665678441.457324) can0 1CFE9201#FFDCADFFFFFFFFFF
(1665678441.458503) can0 18FE9601#FFFFFFFFFF00FFFF
(1665678441.460190) can0 0CF0233D#0000FFFFFF0CFFFF
(1665678441.461779) can0 0CF00203#CC0000FFFF0000FF
(1665678441.462068) can0 0CF00400#007D7D000000F07D
(1665678441.463090) can0 18F0090B#1F7D20647DE67D7D
(1665678441.466085) can0 18FBD600#FFFFFFFFFFFFFFFF
(1665678441.471977) can0 0CF00203#CC0000FFFF0000FF
(1665678441.472184) can0 0CF00400#007D7D000000F07D
(1665678441.472439) can0 18FEDF00#7DFFFFFF7D0000FF
(1665678441.472719) can0 10FF0021#02000000FF3F4D3F
(1665678441.473019) can0 1892FE00#FFFFFFFFFF09FFFF
(1665678441.473308) can0 18F0090B#1F7D20647DE67D7D
(1665678441.473532) can0 18F0000F#DF7D7DFF0F7DFF7D
(1665678441.473786) can0 18F00100#FFFFFFFF00FFFFFF
(1665678441.474075) can0 18F00503#7D00007DFFFFFFFF
(1665678441.474385) can0 18FEE000#2700360027003600
(1665678441.474763) can0 18FEF100#FF0000FCFFFF00FF
(1665678441.475045) can0 18FEF200#000000000000FFFF
(1665678441.475452) can0 18FEEF00#00FFFF00FFFFFFFA
(1665678441.479876) can0 18F00E3D#00FB00FBFFFFFFFF
(1665678441.480208) can0 18F00F3D#00FB00FBFFFFFFFF
(1665678441.481839) can0 0CF00203#CC0000FFFF0000FF
(1665678441.482052) can0 1CEBFF00#06FFFFFFFFFFFFFF
(1665678441.482341) can0 0CF00400#007D7D000000F07D
(1665678441.483121) can0 18F0090B#1F7D20647DE67D7D
(1665678441.483808) can0 18FEF117#FFFFFFFFFFFFFFF0
(1665678441.485821) can0 18FEF121#F7FFFFCFFFFFFFFF
(1665678441.487808) can0 18FEF131#CFFFFFF700FFFF3F
(1665678441.491888) can0 0CF00203#CC0000FFFF0000FF
(1665678441.492072) can0 0CF00400#007D7D000000F07D
(1665678441.493141) can0 18F0090B#1F7D20647DE67D7D
(1665678441.494812) can0 14F00121#FFFFFFFFFFFFFFFF
(1665678441.501740) can0 0CF00300#D10000FFFF0C00FF
(1665678441.501950) can0 0CF00203#CC0000FFFF0000FF
(1665678441.502247) can0 0CF00400#007D7D000000F07D
(1665678441.503119) can0 18F0090B#1F7D20647DE67D7D
(1665678441.506227) can0 0CF00A01#00000000FFFFFFFF
(1665678441.506621) can0 10F01A01#409CFFFFFFFFFFFF
(1665678441.510413) can0 0CF0233D#0000FFFFFF0CFFFF
(1665678441.511734) can0 0C0A0021#FCFFFFFFFFFFFFFF
(1665678441.511890) can0 0CF00203#CC0000FFFF0000FF
(1665678441.512366) can0 0CF00400#007D7D000000F07D
(1665678441.513138) can0 18F0090B#1F7D20647DE67D7D
(1665678441.513784) can0 14F0010B#0F00FFFFFF0DFFFF
(1665678441.514856) can0 18FEBF0B#00007D7D7D7DFFFF
(1665678441.515714) can0 14FDC40B#1F085FFFFFFFFFFF
(1665678441.517762) can0 14FE4F0B#FF00FFFFFFFFFFFF
(1665678441.519799) can0 14FEF031#FFFFFFFFFFFFCCFF
(1665678441.521804) can0 14FF07E6#FFFFFFFFFFFFFFFF
(1665678441.521992) can0 0CF00203#CC0000FFFF0000FF
(1665678441.522290) can0 0CF00400#007D7D000000F07D
(1665678441.522678) can0 10FF0021#02000000FF3F4D3F
(1665678441.522907) can0 18FEDF00#7DFFFFFF7D0000FF
(1665678441.523107) can0 18F0090B#1F7D20647DE67D7D
(1665678441.529902) can0 18F00E3D#00FB00FBFFFFFFFF
(1665678441.530165) can0 18F00F3D#00FB00FBFFFFFFFF
(1665678441.531790) can0 0CF00203#CC0000FFFF0000FF
(1665678441.532208) can0 0CF00400#007D7D000000F07D
(1665678441.532438) can0 14FF0097#FFFFC3E501CECE00
(1665678441.533200) can0 18F0090B#1F7D20647DE67D7D
(1665678441.537874) can0 18F00131#FFFFCFFFFFFFFFFF
(1665678441.541832) can0 0CF00203#CC0000FFFF0000FF
(1665678441.542040) can0 0CF00400#007D7D000000F07D
(1665678441.543207) can0 18F0090B#1F7D20647DE67D7D
(1665678441.551803) can0 0CF00300#D10000FFFF0C00FF
(1665678441.552036) can0 0CF00203#CC0000FFFF0000FF
(1665678441.552388) can0 0CF00400#007D7D000000F07D
(1665678441.553192) can0 18F0090B#1F7D20647DE67D7D
(1665678441.556085) can0 0CF00A01#00000000FFFFFFFF
(1665678441.556546) can0 10F01A01#409CFFFFFFFFFFFF
(1665678441.556826) can0 10FCFD01#FFFFFFFF00000000
(1665678441.557115) can0 18FD9401#6841FFFF00000302
(1665678441.557388) can0 1CFE9201#FFDCADFFFFFFFFFF
(1665678441.558474) can0 18FE9601#FFFFFFFFFF00FFFF
(1665678441.560240) can0 0CF0233D#0000FFFFFF0CFFFF
(1665678441.561810) can0 0CF00203#CC0000FFFF0000FF
(1665678441.562142) can0 0CF00400#007D7D000000F07D
(1665678441.563180) can0 18F0090B#1F7D20647DE67D7D
(1665678441.566045) can0 18FBD600#FFFFFFFFFFFFFFFF
(1665678441.571962) can0 0CF00203#CC0000FFFF0000FF
(1665678441.572274) can0 0CF00400#007D7D000000F07D
(1665678441.572518) can0 18FEDF00#7DFFFFFF7D0000FF
(1665678441.572810) can0 10FF0021#02000000FF3F4D3F
(1665678441.573097) can0 1892FE00#FFFFFFFFFF09FFFF
(1665678441.573439) can0 18F0090B#1F7D20647DE67D7D
(1665678441.573526) can0 18F0000F#DF7D7DFF0F7DFF7D
(1665678441.573941) can0 18F00100#FFFFFFFF00FFFFFF
(1665678441.574220) can0 18F00503#7D00007DFFFFFFFF
(1665678441.574418) can0 18FEE000#2700360027003600
(1665678441.574658) can0 18FEF100#FF0000FCFFFF00FF
(1665678441.574989) can0 18FEF200#000000000000FFFF
(1665678441.579801) can0 18F00E3D#00FB00FBFFFFFFFF
(1665678441.580364) can0 18F00F3D#00FB00FBFFFFFFFF
(1665678441.581828) can0 0CF00203#CC0000FFFF0000FF
(1665678441.582087) can0 0CF00400#007D7D000000F07D
(1665678441.583137) can0 18F0090B#1F7D20657DE67D7D
(1665678441.583765) can0 18FEF117#FFFFFFFFFFFFFFF0
(1665678441.585933) can0 18FEF121#F7FFFFCFFFFFFFFF
(1665678441.587779) can0 18FEF131#CFFFFFF700FFFF3F
(1665678441.591952) can0 0CF00203#CC0000FFFF0000FF
(1665678441.592235) can0 0CF00400#007D7D000000F07D
(1665678441.593222) can0 18F0090B#1F7D20657DE67D7D
(1665678441.594851) can0 14F00121#FFFFFFFFFFFFFFFF
(1665678441.601800) can0 0CF00300#D10000FFFF0C00FF
(1665678441.602059) can0 0CF00203#CC0000FFFF0000FF
(1665678441.602300) can0 0CF00400#007D7D000000F07D
(1665678441.603053) can0 18F0090B#1F7D20657DE67D7D
(1665678441.606331) can0 0CF00A01#00000000FFFFFFFF
(1665678441.606609) can0 10F01A01#409CFFFFFFFFFFFF
(1665678441.611078) can0 0CF0233D#0000FFFFFF0CFFFF
(1665678441.611796) can0 0C0A0021#FCFFFFFFFFFFFFFF
(1665678441.611900) can0 0CF00203#CC0000FFFF0000FF
(1665678441.612454) can0 0CF00400#007D7D000000F07D
(1665678441.613344) can0 18F0090B#1F7D20657DE67D7D
(1665678441.613930) can0 14F0010B#0F00FFFFFF0DFFFF
(1665678441.614938) can0 18FEBF0B#00007D7D7D7DFFFF
(1665678441.615846) can0 14FDC40B#1F085FFFFFFFFFFF
(1665678441.617924) can0 14FE4F0B#FF00FFFFFFFFFFFF
(1665678441.620340) can0 14FEF031#FFFFFFFFFFFFCCFF
(1665678441.622459) can0 14FF07E6#FFFFFFFFFFFFFFFF
(1665678441.622478) can0 0CF00203#CC0000FFFF0000FF
(1665678441.622480) can0 0CF00400#007D7D000000F07D
(1665678441.622723) can0 10FF0021#02000000FF3F4D3F
(1665678441.622937) can0 18FEDF00#7DFFFFFF7D0000FF
(1665678441.623218) can0 18F0090B#1F7D20657DE67D7D
(1665678441.623739) can0 14FF08E6#FFFFFFFFFFFFFFFF
(1665678441.630353) can0 18F00E3D#00FB00FBFFFFFFFF
(1665678441.630373) can0 18F00F3D#00FB00FBFFFFFFFF
(1665678441.631464) can0 18FD8C3D#00001100FFFFFFFF
(1665678441.631483) can0 18FDB23D#0000462500000000
(1665678441.631833) can0 18FBF53D#FFFFFFFF0000FFFF
(1665678441.632229) can0 0CF00203#CC0000FFFF0000FF
(1665678441.632481) can0 0CF00400#007D7D000000F07D
(1665678441.632887) can0 18F0090B#1F7D20657DE67D7D
(1665678441.633318) can0 14FF0097#FFFFC3E501CECE00
(1665678441.638187) can0 18F00131#FFFFCFFFFFFFFFFF
(1665678441.642215) can0 0CF00203#CC0000FFFF0000FF
(1665678441.642232) can0 0CF00400#007D7D000000F07D
(1665678441.643218) can0 18F0090B#1F7D20657DE67D7D
(1665678441.651978) can0 0CF00300#D10000FFFF0C00FF
(1665678441.652000) can0 0CF00203#CC0000FFFF0000FF
(1665678441.652453) can0 0CF00400#007D7D000000F07D
(1665678441.653376) can0 18F0090B#1F7D20657DE67D7D
(1665678441.656349) can0 0CF00A01#00000000FFFFFFFF
(1665678441.656645) can0 10F01A01#409CFFFFFFFFFFFF
(1665678441.656930) can0 10FCFD01#FFFFFFFF00000000
(1665678441.657146) can0 18FD9401#6841FFFF00000302
(1665678441.657397) can0 1CFE9201#FFDCADFFFFFFFFFF
(1665678441.658481) can0 18FE9601#FFFFFFFFFF00FFFF
(1665678441.659447) can0 18FD6501#DD01FFFFFFFFFFFF
(1665678441.659513) can0 18FDA101#B303FFFFFFFF00FF
(1665678441.659839) can0 18FDAA01#FFFFFFFFFFFFFFFF
(1665678441.660439) can0 0CF0233D#0000FFFFFF0CFFFF
(1665678441.660677) can0 18FD413D#FFFFFFFFFCFCFCFC
(1665678441.661025) can0 18FDD001#FFFFFF0030FFFFFF
(1665678441.661229) can0 18FEDB01#7601760176017601
(1665678441.661869) can0 0CF00203#CC0000FFFF0000FF
(1665678441.662120) can0 0CF00400#007D7D000000F07D
(1665678441.663167) can0 18F0090B#1F7D20657DE67D7D
(1665678441.666752) can0 18FBD600#FFFFFFFFFFFFFFFF
(1665678441.672359) can0 0CF00203#CC0000FFFF0000FF
(1665678441.672380) can0 0CF00400#007D7D000000F07D
(1665678441.672632) can0 18FEDF00#7DFFFFFF7D0000FF
(1665678441.672885) can0 10FF0021#02000000FF3F4D3F
(1665678441.673224) can0 1892FE00#FFFFFFFFFF09FFFF
(1665678441.673467) can0 18F0090B#1F7D20657DE67D7D
(1665678441.673798) can0 18F0000F#DF7D7DFF0F7DFF7D
(1665678441.674008) can0 18F00100#FFFFFFFF00FFFFFF
(1665678441.674215) can0 18F00503#7D00007DFFFFFFFF
(1665678441.674531) can0 18FEE000#2700360027003600
(1665678441.674724) can0 18FEF100#FF0000FCFFFF00FF
(1665678441.675120) can0 18FEF200#000000000000FFFF
(1665678441.679846) can0 18F00E3D#00FB00FBFFFFFFFF
(1665678441.680343) can0 18F00F3D#00FB00FBFFFFFFFF
(1665678441.680607) can0 18FD3E00#FFFFFF4325FFFFFF
(1665678441.681876) can0 0CF00203#CC0000FFFF0000FF
(1665678441.682070) can0 0CF00400#007D7D000000F07D
(1665678441.683170) can0 18F0090B#1F7D20657DE67D7D
(1665678441.683727) can0 18FEF117#FFFFFFFFFFFFFFF0
(1665678441.685864) can0 18FEF121#F7FFFFCFFFFFFFFF
(1665678441.687856) can0 18FEF131#CFFFFFF700FFFF3F
(1665678441.692015) can0 0CF00203#CC0000FFFF0000FF
(1665678441.692081) can0 0CF00400#007D7D000000F07D
(1665678441.693172) can0 18F0090B#1F7D20657DE67D7D
(1665678441.694883) can0 14F00121#FFFFFFFFFFFFFFFF
(1665678441.701821) can0 0CF00300#D10000FFFF0C00FF
(1665678441.702038) can0 0CF00203#CC0000FFFF0000FF
(1665678441.702347) can0 0CF00400#007D7D000000F07D
(1665678441.703206) can0 18F0090B#1F7D20657DE67D7D
(1665678441.706383) can0 0CF00A01#00000000FFFFFFFF
(1665678441.706772) can0 10F01A01#409CFFFFFFFFFFFF
(1665678441.710520) can0 0CF0233D#0000FFFFFF0CFFFF
(1665678441.711854) can0 0C0A0021#FCFFFFFFFFFFFFFF
(1665678441.712057) can0 0CF00203#CC0000FFFF0000FF
(1665678441.712417) can0 0CF00400#007D7D000000F07D
(1665678441.713307) can0 18F0090B#1F7D20657DE67D7D
(1665678441.713898) can0 14F0010B#0F00FFFFFF0DFFFF
(1665678441.714983) can0 18FEBF0B#00007D7D7D7DFFFF
(1665678441.715799) can0 14FDC40B#1F085FFFFFFFFFFF
(1665678441.717808) can0 14FE4F0B#FF00FFFFFFFFFFFF
(1665678441.719843) can0 14FEF031#FFFFFFFFFFFFCCFF
(1665678441.721837) can0 14FF07E6#FFFFFFFFFFFFFFFF
(1665678441.722089) can0 0CF00203#CC0000FFFF0000FF
(1665678441.722370) can0 0CF00400#007D7D000000F07D
(1665678441.722674) can0 10FF0021#02000000FF3F4D3F
(1665678441.722935) can0 18FEDF00#7DFFFFFF7D0000FF
(1665678441.723260) can0 18F0090B#1F7D20657DE67D7D
(1665678441.729903) can0 18F00E3D#00FB00FBFFFFFFFF
(1665678441.730125) can0 18F00F3D#00FB00FBFFFFFFFF
(1665678441.731822) can0 0CF00203#CC0000FFFF0000FF
(1665678441.732113) can0 0CF00400#007D7D000000F07D
(1665678441.732946) can0 18F0090B#1F7D20667DE67D7D
(1665678441.734771) can0 14FF0097#FFFFC3E501CECE00
(1665678441.737877) can0 18F00131#FFFFCFFFFFFFFFFF
(1665678441.741947) can0 0CF00203#CC0000FFFF0000FF
(1665678441.742203) can0 0CF00400#007D7D000000F07D
(1665678441.743225) can0 18F0090B#1F7D20667DE67D7D
(1665678441.751840) can0 0CF00300#D10000FFFF0C00FF
(1665678441.751882) can0 0CF00203#CC0000FFFF0000FF
(1665678441.752450) can0 0CF00400#007D7D000000F07D
(1665678441.753126) can0 18F0090B#1F7D20667DE67D7D
(1665678441.756130) can0 0CF00A01#00000000FFFFFFFF
(1665678441.756492) can0 10F01A01#409CFFFFFFFFFFFF
(1665678441.756748) can0 10FCFD01#FFFFFFFF00000000
(1665678441.757055) can0 18FD9401#6841FFFF00000302
(1665678441.757332) can0 1CFE9201#FFDCADFFFFFFFFFF
(1665678441.758504) can0 18FE9601#FFFFFFFFFF00FFFF
(1665678441.760067) can0 0CF0233D#0000FFFFFF0CFFFF
(1665678441.761804) can0 0CF00203#CC0000FFFF0000FF
(1665678441.762056) can0 0CF00400#007D7D000000F07D
(1665678441.763127) can0 18F0090B#1F7D20667DE67D7D
(1665678441.766075) can0 18FBD600#FFFFFFFFFFFFFFFF
(1665678441.771940) can0 0CF00203#CC0000FFFF0000FF
(1665678441.772157) can0 0CF00400#007D7D000000F07D
(1665678441.772449) can0 18FEDF00#7DFFFFFF7D0000FF
(1665678441.772709) can0 10FF0021#02000000FF3F4D3F
(1665678441.772974) can0 1892FE00#FFFFFFFFFF09FFFF
(1665678441.773266) can0 18F0090B#1F7D20667DE67D7D
(1665678441.773530) can0 18F0000F#DF7D7DFF0F7DFF7D
(1665678441.773755) can0 18F00100#FFFFFFFF00FFFFFF
(1665678441.774126) can0 18F00503#7D00007DFFFFFFFF
(1665678441.774368) can0 18FEE000#2700360027003600
(1665678441.774776) can0 18FEF100#FF0000FCFFFF00FF
(1665678441.775058) can0 18FEF200#000000000000FFFF
(1665678441.779883) can0 18F00E3D#00FB00FBFFFFFFFF
(1665678441.780224) can0 18F00F3D#00FB00FBFFFFFFFF
(1665678441.780520) can0 18FD203D#46254625FFFFFFFF
(1665678441.781838) can0 0CF00203#CC0000FFFF0000FF
(1665678441.782032) can0 0CF00400#007D7D000000F07D
(1665678441.783058) can0 18F0090B#1F7D20667DE67D7D
(1665678441.783757) can0 18FEF117#FFFFFFFFFFFFFFF0
(1665678441.785840) can0 18FEF121#F7FFFFCFFFFFFFFF
(1665678441.787735) can0 18FEF131#CFFFFFF700FFFF3F
(1665678441.791894) can0 0CF00203#CC0000FFFF0000FF
(1665678441.792151) can0 0CF00400#007D7D000000F07D
(1665678441.793179) can0 18F0090B#1F7D20667DE67D7D
(1665678441.794815) can0 14F00121#FFFFFFFFFFFFFFFF
(1665678441.795043) can0 10FECA25#00FF00000000FFFF
(1665678441.801788) can0 0CF00300#D10000FFFF0C00FF
(1665678441.801998) can0 0CF00203#CC0000FFFF0000FF
(1665678441.802293) can0 0CF00400#007D7D000000F07D
(1665678441.803150) can0 18F0090B#1F7D20667DE67D7D
(1665678441.806310) can0 0CF00A01#00000000FFFFFFFF
(1665678441.806678) can0 10F01A01#409CFFFFFFFFFFFF
(1665678441.810385) can0 0CF0233D#0000FFFFFF0CFFFF
(1665678441.811797) can0 0C0A0021#FCFFFFFFFFFFFFFF
(1665678441.811884) can0 0CF00203#CC0000FFFF0000FF
(1665678441.812391) can0 0CF00400#007D7D000000F07D
(1665678441.812948) can0 18F0090B#1F7D20657DE67D7D
(1665678441.813851) can0 14F0010B#0F00FFFFFF0DFFFF
(1665678441.814940) can0 18FEBF0B#00007D7D7D7DFFFF
(1665678441.815811) can0 14FDC40B#1F085FFFFFFFFFFF
(1665678441.817814) can0 14FE4F0B#FF00FFFFFFFFFFFF
(1665678441.819820) can0 14FEF031#FFFFFFFFFFFFCCFF
(1665678441.821798) can0 14FF07E6#FFFFFFFFFFFFFFFF
(1665678441.822026) can0 0CF00203#CC0000FFFF0000FF
(1665678441.822369) can0 0CF00400#007D7D000000F07D
(1665678441.822617) can0 10FF0021#02000000FF3F4D3F
(1665678441.822963) can0 18FEDF00#7DFFFFFF7D0000FF
(1665678441.823196) can0 18F0090B#1F7D20657DE67D7D
(1665678441.824417) can0 18FF0421#FFFFFFFFFFFB73DC
(1665678441.829812) can0 18F00E3D#00FB00FBFFFFFFFF
(1665678441.830083) can0 18F00F3D#00FB00FBFFFFFFFF
(1665678441.831889) can0 0CF00203#CC0000FFFF0000FF
(1665678441.832099) can0 0CF00400#007D7D000000F07D
(1665678441.832902) can0 18F0090B#1F7D20657DE67D7D
(1665678441.835168) can0 14FF0097#FFFFC3E501CECE00
(1665678441.837793) can0 18F00131#FFFFCFFFFFFFFFFF
(1665678441.841832) can0 0CF00203#CC0000FFFF0000FF
(1665678441.842101) can0 0CF00400#007D7D000000F07D
(1665678441.843167) can0 18F0090B#1F7D20657DE67D7D
(1665678441.851787) can0 0CF00300#D10000FFFF0C00FF
(1665678441.851950) can0 0CF00203#CC0000FFFF0000FF
(1665678441.852436) can0 0CF00400#007D7D000000F07D
(1665678441.853183) can0 18F0090B#1F7D20657DE67D7D
(1665678441.856123) can0 0CF00A01#00000000FFFFFFFF
(1665678441.856495) can0 10F01A01#409CFFFFFFFFFFFF
(1665678441.856762) can0 10FCFD01#FFFFFFFF00000000
(1665678441.857046) can0 18FD9401#6841FFFF00000302
(1665678441.857325) can0 1CFE9201#FFDCADFFFFFFFFFF
(1665678441.858506) can0 18FE9601#FFFFFFFFFF00FFFF
(1665678441.860116) can0 0CF0233D#0000FFFFFF0CFFFF
(1665678441.861841) can0 0CF00203#CC0000FFFF0000FF
(1665678441.862077) can0 0CF00400#007D7D000000F07D
(1665678441.863144) can0 18F0090B#1F7D20667DE67D7D
(1665678441.866046) can0 18FBD600#FFFFFFFFFFFFFFFF
(1665678441.871954) can0 0CF00203#CC0000FFFF0000FF
(1665678441.872186) can0 0CF00400#007D7D000000F07D
(1665678441.872464) can0 18FEDF00#7DFFFFFF7D0000FF
(1665678441.872746) can0 10FF0021#02000000FF3F4D3F
(1665678441.873093) can0 1892FE00#FFFFFFFFFF09FFFF
(1665678441.873309) can0 18F0090B#1F7D20687DE67D7D
(1665678441.873593) can0 18F0000F#DF7D7DFF0F7DFF7D
(1665678441.873884) can0 18F00100#FFFFFFFF00FFFFFF
(1665678441.874174) can0 18F00503#7D00007DFFFFFFFF
(1665678441.874396) can0 18FEE000#2700360027003600
(1665678441.874705) can0 18FEF100#FF0000FCFFFF00FF
(1665678441.875081) can0 18FEF200#000000000000FFFF
(1665678441.879886) can0 18F00E3D#00FB00FBFFFFFFFF
(1665678441.880235) can0 18F00F3D#00FB00FBFFFFFFFF
(1665678441.881826) can0 0CF00203#CC0000FFFF0000FF
(1665678441.882062) can0 18FFC025#430CFF4050F0FFFF
(1665678441.882376) can0 0CF00400#007D7D000000F07D
(1665678441.883165) can0 18F0090B#1F7D20697DE67D7D
(1665678441.883753) can0 18FEF117#FFFFFFFFFFFFFFF0
(1665678441.885859) can0 18FEF121#F7FFFFCFFFFFFFFF
(1665678441.887807) can0 18FEF131#CFFFFFF700FFFF3F
(1665678441.887994) can0 18FFC125#FFFC5AC000000000
(1665678441.891852) can0 0CF00203#CC0000FFFF0000FF
(1665678441.892165) can0 0CF00400#007D7D000000F07D
(1665678441.893145) can0 18F0090B#1F7D20697DE67D7D
(1665678441.894032) can0 18FFC225#00102F012F015700
(1665678441.894816) can0 14F00121#FFFFFFFFFFFFFFFF
(1665678441.896281) can0 18FD0517#7FFFFFFFFFFFFFFF
(1665678441.899957) can0 18FFC325#2541F350200041C0
(1665678441.901782) can0 0CF00300#D10000FFFF0C00FF
(1665678441.901958) can0 0CF00203#CC0000FFFF0000FF
(1665678441.902319) can0 0CF00400#007D7D000000F07D
(1665678441.903109) can0 18F0090B#1F7D20697DE67D7D
(1665678441.906044) can0 18FFC425#13D413D4F0FFF0FF
(1665678441.906255) can0 0CF00A01#00000000FFFFFFFF
(1665678441.906583) can0 18FF0817#000C0000FFFFFFFF
(1665678441.906828) can0 10F01A01#409CFFFFFFFFFFFF
(1665678441.910432) can0 0CF0233D#0000FFFFFF0CFFFF
(1665678441.911771) can0 0C0A0021#FCFFFFFFFFFFFFFF
(1665678441.911984) can0 0CF00203#CC0000FFFF0000FF
(1665678441.912300) can0 18FFC725#4300FCFFFFFFFFFF
(1665678441.912572) can0 0CF00400#007D7D000000F07D
(1665678441.913139) can0 18F0090B#1F7D20697DE67D7D
(1665678441.913837) can0 14F0010B#0F00FFFFFF0DFFFF
(1665678441.915460) can0 18FEBF0B#00007D7D7D7DFFFF
(1665678441.915643) can0 14FDC40B#1F085FFFFFFFFFFF
(1665678441.917810) can0 14FE4F0B#FF00FFFFFFFFFFFF
(1665678441.917966) can0 18FFC525#0105151401440011
(1665678441.919816) can0 14FEF031#FFFFFFFFFFFFCCFF
(1665678441.921811) can0 14FF07E6#FFFFFFFFFFFFFFFF
(1665678441.922030) can0 0CF00203#CC0000FFFF0000FF
(1665678441.922403) can0 0CF00400#007D7D000000F07D
(1665678441.922628) can0 10FF0021#02000000FF3F4D3F
(1665678441.922943) can0 18FEDF00#7DFFFFFF7D0000FF
(1665678441.923189) can0 18F0090B#1F7D20697DE67D7D
(1665678441.924065) can0 18FFC625#1040000000002017
(1665678441.929867) can0 18F00E3D#00FB00FBFFFFFFFF
(1665678441.930078) can0 18FFC925#000000000000F0FF
(1665678441.930335) can0 18F00F3D#00FB00FBFFFFFFFF
(1665678441.931798) can0 18FDB300#FFFF4625FFFFFFFF
(1665678441.932005) can0 0CF00203#CC0000FFFF0000FF
(1665678441.932260) can0 0CF00400#007D7D000000F07D
(1665678441.932608) can0 18FDB43D#46254625FFFFFFFF
(1665678441.932842) can0 18FEF600#FF004130FFFFFFFF
(1665678441.933223) can0 18F0090B#1F7D20697DE67D7D
(1665678441.935739) can0 18FE700B#FFFFFFFFFFFFFFFF
(1665678441.935996) can0 18FFCA25#00466060F401D007
(1665678441.937126) can0 14FF0097#FFFFC3E501CECE00
(1665678441.937829) can0 18F00131#FFFFCFFFFFFFFFFF
(1665678441.941866) can0 0CF00203#CC0000FFFF0000FF
(1665678441.942086) can0 0CF00400#007D7D000000F07D
(1665678441.943182) can0 18F0090B#1F7D20687DE67D7D
(1665678441.951739) can0 0CF00300#D10000FFFF0C00FF
(1665678441.952153) can0 0CF00203#CC0000FFFF0000FF
(1665678441.952291) can0 0CF00400#007D7D000000F07D
(1665678441.953159) can0 18F0090B#1F7D20667DE67D7D
(1665678441.956124) can0 0CF00A01#00000000FFFFFFFF
(1665678441.956480) can0 10F01A01#409CFFFFFFFFFFFF
(1665678441.956931) can0 10FCFD01#FFFFFFFF00000000
(1665678441.957180) can0 18FD9401#6841FFFF00000302
(1665678441.957467) can0 1CFE9201#FFDCADFFFFFFFFFF
(1665678441.958890) can0 18FE9601#FFFFFFFFFF00FFFF
(1665678441.960125) can0 0CF0233D#0000FFFFFF0CFFFF
(1665678441.961796) can0 0CF00203#CC0000FFFF0000FF
(1665678441.962076) can0 0CF00400#007D7D000000F07D
(1665678441.962363) can0 18FECA00#03FF00000000FFFF
(1665678441.963157) can0 18F0090B#1F7D20667DE67D7D
(1665678441.966108) can0 18FBD600#FFFFFFFFFFFFFFFF
(1665678441.971949) can0 0CF00203#CC0000FFFF0000FF
(1665678441.972165) can0 0CF00400#007D7D000000F07D
(1665678441.972477) can0 18FEDF00#7DFFFFFF7D0000FF
(1665678441.972760) can0 10FF0021#02000000FF3F4D3F
(1665678441.973040) can0 1892FE00#FFFFFFFFFF09FFFF
(1665678441.973315) can0 18F0090B#1F7D20667DE67D7D
(1665678441.973591) can0 18F0000F#DF7D7DFF0F7DFF7D
(1665678441.973804) can0 18F00100#FFFFFFFF00FFFFFF
(1665678441.974115) can0 18F00503#7D00007DFFFFFFFF
(1665678441.974432) can0 18FEE000#2700360027003600
(1665678441.974878) can0 18FEF100#FF0000FCFFFF00FF
(1665678441.975117) can0 18FEF200#000000000000FFFF
(1665678441.975553) can0 18FEEF00#00FFFF00FFFFFFFA
(1665678441.975619) can0 18FD0900#0000000033B70709
(1665678441.976035) can0 18FDE000#FFFFFFFFFFFFFFFF
(1665678441.976370) can0 18FEC100#D2034605D2034605
(1665678441.976667) can0 18FEE400#FF7FFFFFFFFFFFFF
(1665678441.976889) can0 18FEF500#C3FFFFF224FFFFFF
(1665678441.977224) can0 18FEF700#FFFFFFFFFD00FFFF
(1665678441.977448) can0 18FF7400#5D00FFFFFFCFFFFF
(1665678441.979715) can0 18F00E3D#00FB00FBFFFFFFFF
(1665678441.980124) can0 18F00F3D#00FB00FBFFFFFFFF
(1665678441.981705) can0 0CF00203#CC0000FFFF0000FF
(1665678441.982001) can0 0CF00400#007D7D000000F07D
(1665678441.983003) can0 18F0090B#1F7D20657DE67D7D
(1665678441.983694) can0 18FEF117#FFFFFFFFFFFFFFF0
(1665678441.985686) can0 18FEF121#F7FFFFCFFFFFFFFF
(1665678441.987649) can0 18FEF131#CFFFFFF700FFFF3F
(1665678441.991755) can0 0CF00203#CC0000FFFF0000FF
(1665678441.992131) can0 0CF00400#007D7D000000F07D
(1665678441.993179) can0 18F0090B#1F7D20667DE67D7D
(1665678441.994801) can0 14F00121#FFFFFFFFFFFFFFFF
(1665678442.001780) can0 0CF00300#D10000FFFF0C00FF
(1665678442.002023) can0 0CF00203#CC0000FFFF0000FF
(1665678442.002269) can0 0CF00400#007D7D000000F07D
(1665678442.003102) can0 18F0090B#1F7D20667DE67D7D
(1665678442.006289) can0 0CF00A01#00000000FFFFFFFF
(1665678442.006715) can0 10F01A01#409CFFFFFFFFFFFF
(1665678442.010455) can0 0CF0233D#0000FFFFFF0CFFFF
(1665678442.011808) can0 0C0A0021#FCFFFFFFFFFFFFFF
(1665678442.012052) can0 0CF00203#CC0000FFFF0000FF
(1665678442.012325) can0 0CF00400#007D7D000000F07D
(1665678442.013203) can0 18F0090B#1F7D20667DE67D7D
(1665678442.013805) can0 14F0010B#0F00FFFFFF0DFFFF
(1665678442.014892) can0 18FEBF0B#00007D7D7D7DFFFF
(1665678442.015807) can0 14FDC40B#1F085FFFFFFFFFFF
(1665678442.017817) can0 14FE4F0B#FF00FFFFFFFFFFFF
(1665678442.019792) can0 14FEF031#FFFFFFFFFFFFCCFF
(1665678442.021816) can0 14FF07E6#FFFFFFFFFFFFFFFF
(1665678442.022037) can0 0CF00203#CC0000FFFF0000FF
(1665678442.022319) can0 0CF00400#007D7D000000F07D
(1665678442.022653) can0 10FF0021#02000000FF3F4D3F
(1665678442.022902) can0 18FEDF00#7DFFFFFF7D0000FF
(1665678442.023124) can0 18F0090B#1F7D20687DE67D7D
(1665678442.025757) can0 1CDE0317#F0FFFFFFFFFFFFFF
(1665678442.029859) can0 18F00E3D#00FB00FBFFFFFFFF
(1665678442.030084) can0 18F00F3D#00FB00FBFFFFFFFF
(1665678442.031839) can0 0CF00203#CC0000FFFF0000FF
(1665678442.032153) can0 0CF00400#007D7D000000F07D
(1665678442.032941) can0 18F0090B#1F7D20687DE67D7D
(1665678442.037837) can0 18F00131#FFFFCFFFFFFFFFFF
(1665678442.038066) can0 14FF0097#FFFFC3E501CECE00
(1665678442.041899) can0 0CF00203#CC0000FFFF0000FF
(1665678442.042172) can0 0CF00400#007D7D000000F07D
(1665678442.042822) can0 18F0090B#1F7D20687DE67D7D
(1665678442.051802) can0 0CF00300#D10000FFFF0C00FF
(1665678442.052019) can0 0CF00203#CC0000FFFF0000FF
(1665678442.052322) can0 0CF00400#007D7D000000F07D
(1665678442.053180) can0 18F0090B#1F7D20687DE67D7D
(1665678442.056115) can0 0CF00A01#00000000FFFFFFFF
(1665678442.056522) can0 10F01A01#409CFFFFFFFFFFFF
(1665678442.057004) can0 10FCFD01#FFFFFFFF00000000
(1665678442.057219) can0 18FD9401#6841FFFF00000302
(1665678442.057487) can0 1CFE9201#FFDCADFFFFFFFFFF
(1665678442.058909) can0 18FE9601#FFFFFFFFFF00FFFF
(1665678442.060214) can0 0CF0233D#0000FFFFFF0CFFFF
(1665678442.061833) can0 0CF00203#CC0000FFFF0000FF
(1665678442.062097) can0 0CF00400#007D7D000000F07D
(1665678442.063154) can0 18F0090B#1F7D20667DE67D7D
(1665678442.066100) can0 18FBD600#FFFFFFFFFFFFFFFF
(1665678442.071948) can0 0CF00203#CC0000FFFF0000FF
(1665678442.072139) can0 0CF00400#007D7D000000F07D
(1665678442.072477) can0 18FEDF00#7DFFFFFF7D0000FF
(1665678442.072806) can0 10FF0021#02000000FF3F4D3F
(1665678442.073031) can0 1892FE00#FFFFFFFFFF09FFFF
(1665678442.073310) can0 18F0090B#1F7D20667DE67D7D
(1665678442.073601) can0 18F0000F#DF7D7DFF0F7DFF7D
(1665678442.073902) can0 18F00100#FFFFFFFF00FFFFFF
(1665678442.074224) can0 18F00503#7D00007DFFFFFFFF
(1665678442.074441) can0 18FEE000#2700360027003600
(1665678442.074799) can0 18FEF100#FF0000FCFFFF00FF
(1665678442.075020) can0 18FEF200#000000000000FFFF
(1665678442.079815) can0 18F00E3D#00FB00FBFFFFFFFF
(1665678442.080251) can0 18F00F3D#00FB00FBFFFFFFFF
(1665678442.081849) can0 0CF00203#CC0000FFFF0000FF
(1665678442.082090) can0 0CF00400#007D7D000000F07D
(1665678442.083146) can0 18F0090B#1F7D20687DE67D7D
(1665678442.083763) can0 18FEF117#FFFFFFFFFFFFFFF0
(1665678442.085852) can0 18FEF121#F7FFFFCFFFFFFFFF
(1665678442.087815) can0 18FEF131#CFFFFFF700FFFF3F
(1665678442.091899) can0 0CF00203#CC0000FFFF0000FF
(1665678442.092135) can0 0CF00400#007D7D000000F07D
(1665678442.093217) can0 18F0090B#1F7D20687DE67D7D
(1665678442.094815) can0 14F00121#FFFFFFFFFFFFFFFF
(1665678442.101768) can0 0CF00300#D10000FFFF0C00FF
(1665678442.102039) can0 0CF00203#CC0000FFFF0000FF
(1665678442.102337) can0 0CF00400#007D7D000000F07D
(1665678442.102668) can0 18FD0900#0000000033B70709
(1665678442.102936) can0 18FD7C00#FF80C13030FF1FFF
(1665678442.103199) can0 18F0090B#1F7D20687DE67D7D
(1665678442.103418) can0 18FECA03#03FF00000000FFFF
(1665678442.103687) can0 18FECA11#03FF00000000FFFF
(1665678442.104034) can0 18FCDC00#FFFFFFFFFFFFFFFF
(1665678442.106331) can0 0CF00A01#00000000FFFFFFFF
(1665678442.106715) can0 10F01A01#409CFFFFFFFFFFFF
(1665678442.110475) can0 0CF0233D#0000FFFFFF0CFFFF
(1665678442.111801) can0 0C0A0021#FCFFFFFFFFFFFFFF
(1665678442.112035) can0 0CF00203#CC0000FFFF0000FF
(1665678442.112318) can0 0CF00400#007D7D000000F07D
(1665678442.112890) can0 18F0090B#1F7D20687DE67D7D
(1665678442.113813) can0 14F0010B#0F00FFFFFF0DFFFF
(1665678442.114923) can0 18FEBF0B#00007D7D7D7DFFFF
(1665678442.115830) can0 14FDC40B#1F085FFFFFFFFFFF
(1665678442.117796) can0 14FE4F0B#FF00FFFFFFFFFFFF
(1665678442.119809) can0 14FEF031#FFFFFFFFFFFFCCFF
(1665678442.121850) can0 14FF07E6#FFFFFFFFFFFFFFFF
(1665678442.122050) can0 0CF00203#CC0000FFFF0000FF
(1665678442.122344) can0 0CF00400#007D7D000000F07D
(1665678442.122662) can0 10FF0021#02000000FF3F4D3F
(1665678442.122922) can0 18FEDF00#7DFFFFFF7D0000FF
(1665678442.123194) can0 18F0090B#1F7D20687DE67D7D
(1665678442.123728) can0 14FF08E6#FFFFFFFFFFFFFFFF
(1665678442.125789) can0 18E00017#FFFFFFFFFFF0FFFF
(1665678442.127804) can0 18E00019#00FFFFFCFFFFFFFF
(1665678442.129822) can0 18E00031#FFFFFFFFFFFFFFFF
(1665678442.130050) can0 18F00E3D#00FB00FBFFFFFFFF
(1665678442.130315) can0 18F00F3D#00FB00FBFFFFFFFF
(1665678442.130720) can0 18FECA3D#43FF900C1504FFFF
(1665678442.131454) can0 18FD8C3D#00001100FFFFFFFF
(1665678442.131557) can0 18FDB23D#0000462500000000
(1665678442.131826) can0 18E0FF21#FFFFFFFFFFFFFFFF
(1665678442.132260) can0 0CF00203#CC0000FFFF0000FF
(1665678442.132571) can0 0CF00400#007D7D000000F07D
(1665678442.132856) can0 18FFA63D#00FF00000000FFFF
(1665678442.133111) can0 18F0090B#1F7D20667DE67D7D
(1665678442.136865) can0 18FBF53D#FFFFFFFF0000FFFF
(1665678442.137823) can0 18F00131#FFFFCFFFFFFFFFFF
(1665678442.140805) can0 14FF0097#FFFFC3E501CECE00
(1665678442.141819) can0 18FECA0B#C0FF00000000FFFF
(1665678442.142062) can0 0CF00203#CC0000FFFF0000FF
(1665678442.142349) can0 0CF00400#007D7D000000F07D
(1665678442.142916) can0 18F0090B#1F7D20667DE67D7D
(1665678442.143829) can0 18FECA13#00FF0000007FFFFF
(1665678442.145850) can0 18FECA17#00FF00000000FFFF
(1665678442.147798) can0 18FECA19#00FF0000007FFFFF
(1665678442.149817) can0 18FECA21#00FF0000007FFFFF
(1665678442.151789) can0 0CF00300#D10000FFFF0C00FF
(1665678442.151999) can0 18FECA2A#00FF0000007FFFFF
(1665678442.152275) can0 0CF00203#CC0000FFFF0000FF
(1665678442.152604) can0 0CF00400#007D7D000000F07D
(1665678442.153151) can0 18F0090B#1F7D20667DE67D7D
(1665678442.153886) can0 18FECA3A#00FF0000007FFFFF
(1665678442.155816) can0 18FECA45#00FF0000007FFFFF
(1665678442.156049) can0 0CF00A01#00000000FFFFFFFF
(1665678442.156471) can0 10F01A01#409CFFFFFFFFFFFF
(1665678442.156752) can0 18FECA01#43FF7F020E02FFFF
(1665678442.157071) can0 10FCFD01#FFFFFFFF00000000
(1665678442.157345) can0 18FD9401#6841FFFF00000302
(1665678442.157723) can0 1CFE9201#FFDCADFFFFFFFFFF
(1665678442.157848) can0 18FECA4A#00FF0000007FFFFF
(1665678442.158825) can0 18FE9601#FFFFFFFFFF00FFFF
(1665678442.159494) can0 18FD6501#DD01FFFFFFFFFFFF
(1665678442.159789) can0 18FECA7F#00FF0000007FFFFF
(1665678442.160058) can0 18FDA101#B303FFFFFFFF00FF
(1665678442.160358) can0 0CF0233D#0000FFFFFF0CFFFF
(1665678442.160628) can0 18FD413D#FFFFFFFFFCFCFCFC
(1665678442.161004) can0 18FDAA01#FFFFFFFFFFFFFFFF
(1665678442.161244) can0 18FDD001#FFFFFF0030FFFFFF
(1665678442.161546) can0 18FD6601#FF3DFFFFFFFFFFFF
(1665678442.161820) can0 18FECA85#00FF0000007FFFFF
(1665678442.162127) can0 0CF00203#CC0000FFFF0000FF
(1665678442.162416) can0 0CF00400#007D7D000000F07D
(1665678442.162705) can0 18FE6901#4725E024FFFF2925
(1665678442.162991) can0 18FEDB01#7601760176017601
(1665678442.163252) can0 18F0090B#1F7D20667DE67D7D
(1665678442.163708) can0 18FECAE8#00FF00000000FFFF
(1665678442.165695) can0 18FECAEC#00FF0000007FFFFF
(1665678442.166248) can0 18FE9701#FFFFFFFFFFFFFFFF
(1665678442.166548) can0 18FE9801#6027FFFFFFFFFFFF
(1665678442.166880) can0 18FE9901#FFFFFFFFFFFFFFFF
(1665678442.167097) can0 18FE9A01#3825FFFFFFFFFFFF
(1665678442.167422) can0 18FEDD01#FF0000FFFFFFFFFF
(1665678442.167724) can0 18FECAED#00FF0000007FFFFF
(1665678442.168036) can0 18FFAA01#0000EC05F27C6564
(1665678442.168469) can0 18FFAB01#080006007DFA6810
(1665678442.168841) can0 18FFAC01#000000190B00F0FF
(1665678442.169286) can0 18FFAD01#6900FFFF0000FFFF
(1665678442.169583) can0 18FFAE01#00FF00000000FFFF
(1665678442.169878) can0 18FDD301#FFFFFFFFFFFFFFFF
(1665678442.170431) can0 18FE5600#F93CFFFF1F1FFFFF
(1665678442.170699) can0 18FEA400#FFFF6025FA7CFFFF
(1665678442.171009) can0 18FFA53D#FFFF511B43254325
(1665678442.171264) can0 18FEEE00#3E3DD424FFFF40FF
(1665678442.171599) can0 18FBD600#FFFFFFFFFFFFFFFF
(1665678442.171843) can0 18FEE419#FFFFFCFFFFFFFFFF
(1665678442.172144) can0 0CF00203#CC0000FFFF0000FF
(1665678442.172491) can0 0CF00400#007D7D000000F07D
(1665678442.172731) can0 10FF0021#02000000FF3F4D3F
(1665678442.173025) can0 18FEDF00#7DFFFFFF7D0000FF
(1665678442.173323) can0 18F0090B#1F7D20657DE67D7D
(1665678442.173591) can0 1892FE00#FFFFFFFFFF09FFFF
(1665678442.173888) can0 18F0000F#DF7D7DFF0F7DFF7D
(1665678442.174216) can0 18F00100#FFFFFFFF00FFFFFF
(1665678442.174495) can0 18F00503#7D00007DFFFFFFFF
(1665678442.174800) can0 18FEE000#2700360027003600
(1665678442.175139) can0 18FEF100#FF0000FCFFFF00FF
(1665678442.175433) can0 18FEF200#000000000000FFFF
(1665678442.179711) can0 18F00E3D#00FB00FBFFFFFFFF
(1665678442.180135) can0 18F00F3D#00FB00FBFFFFFFFF
(1665678442.180416) can0 18FD3E00#FFFFFF4325FFFFFF
(1665678442.181733) can0 0CF00203#CC0000FFFF0000FF
(1665678442.181995) can0 0CF00400#007D7D000000F07D
(1665678442.183020) can0 18F0090B#1F7D20657DE67D7D
(1665678442.183682) can0 18FEF117#FFFFFFFFFFFFFFF0
(1665678442.185688) can0 18FEF121#F7FFFFCFFFFFFFFF
(1665678442.187651) can0 18FEF131#CFFFFFF700FFFF3F
(1665678442.190291) can0 18FD9B3D#FFFFFFFFFFFFFFFF
(1665678442.191640) can0 18FF0025#F0FF640A27003600
(1665678442.191906) can0 0CF00203#CC0000FFFF0000FF
(1665678442.192226) can0 0CF00400#007D7D000000F07D
(1665678442.192772) can0 18F0090B#1F7D20657DE67D7D
(1665678442.194638) can0 14F00121#FFFFFFFFFFFFFFFF
(1665678442.195684) can0 1CFEC347#FFFFFFFFFFFFFFFF
(1665678442.201631) can0 0CF00300#D10000FFFF0C00FF
(1665678442.201933) can0 0CF00203#CC0000FFFF0000FF
(1665678442.202198) can0 0CF00400#007D7D000000F07D
(1665678442.203024) can0 18F0090B#1F7D20657DE67D7D
(1665678442.206150) can0 0CF00A01#00000000FFFFFFFF
(1665678442.206635) can0 10F01A01#409CFFFFFFFFFFFF
(1665678442.210376) can0 0CF0233D#0000FFFFFF0CFFFF
(1665678442.211713) can0 0C0A0021#FCFFFFFFFFFFFFFF
(1665678442.211904) can0 0CF00203#CC0000FFFF0000FF
(1665678442.212279) can0 18FF0097#464D2039342E3120
(1665678442.212526) can0 0CF00400#007D7D000000F07D
(1665678442.212857) can0 18F0090B#1F7D20647DE67D7D
(1665678442.213772) can0 14F0010B#0F00FFFFFF0DFFFF
(1665678442.214860) can0 18FEBF0B#00007D7D7D7DFFFF
(1665678442.215754) can0 14FDC40B#1F085FFFFFFFFFFF
(1665678442.217718) can0 14FE4F0B#FF00FFFFFFFFFFFF
(1665678442.219738) can0 14FEF031#FFFFFFFFFFFFCCFF
(1665678442.220587) can0 18FD3C3D#0000FFFFFFCCFFFF
(1665678442.221767) can0 14FF07E6#FFFFFFFFFFFFFFFF
(1665678442.222000) can0 0CF00203#CC0000FFFF0000FF
(1665678442.222262) can0 0CF00400#007D7D000000F07D
(1665678442.222607) can0 10FF0021#02000000FF3F4D3F
(1665678442.222836) can0 18FEDF00#7DFFFFFF7D0000FF
(1665678442.223145) can0 18F0090B#1F7D20647DE67D7D
(1665678442.227277) can0 14FF0097#FFFFC3E501CECE00
(1665678442.229833) can0 18F00E3D#00FB00FBFFFFFFFF
(1665678442.230020) can0 18F00F3D#00FB00FBFFFFFFFF
(1665678442.231863) can0 0CF00203#CC0000FFFF0000FF
(1665678442.232084) can0 0CF00400#007D7D000000F07D
(1665678442.232851) can0 18F0090B#1F7D20647DE67D7D
(1665678442.237766) can0 18F00131#FFFFCFFFFFFFFFFF
(1665678442.240341) can0 18FFA33D#0000FFFF8010FFFF
(1665678442.241870) can0 0CF00203#CC0000FFFF0000FF
(1665678442.242112) can0 0CF00400#007D7D000000F07D
(1665678442.242917) can0 18F0090B#1F7D20627DE67D7D
(1665678442.250669) can0 18FFA43D#D606D606FFFFFCFF
(1665678442.251864) can0 0CF00300#D10000FFFF0C00FF
(1665678442.252035) can0 0CF00203#CC0000FFFF0000FF
(1665678442.252459) can0 0CF00400#007D7D000000F07D
(1665678442.253192) can0 18F0090B#1F7D20627DE67D7D
(1665678442.256185) can0 0CF00A01#00000000FFFFFFFF
(1665678442.256494) can0 10F01A01#409CFFFFFFFFFFFF
(1665678442.256961) can0 10FCFD01#FFFFFFFF00000000
(1665678442.257202) can0 18FD9401#6841FFFF00000302
(1665678442.257495) can0 1CFE9201#FFDCADFFFFFFFFFF
(1665678442.258936) can0 18FE9601#FFFFFFFFFF00FFFF
(1665678442.260197) can0 0CF0233D#0000FFFFFF0CFFFF
(1665678442.260451) can0 18FFA23D#0000F626E803340F
(1665678442.261839) can0 0CF00203#CC0000FFFF0000FF
(1665678442.262080) can0 0CF00400#007D7D000000F07D
(1665678442.263163) can0 18F0090B#1F7D20627DE67D7D
(1665678442.266120) can0 18FBD600#FFFFFFFFFFFFFFFF
(1665678442.270456) can0 18FFA03D#1A0D1A00190000FF
(1665678442.271945) can0 0CF00203#CC0000FFFF0000FF
(1665678442.272164) can0 0CF00400#007D7D000000F07D
(1665678442.272491) can0 18FEDF00#7DFFFFFF7D0000FF
(1665678442.272779) can0 10FF0021#02000000FF3F4D3F
(1665678442.273040) can0 1892FE00#FFFFFFFFFF09FFFF
(1665678442.273306) can0 18F0090B#1F7D20627DE67D7D
(1665678442.273570) can0 18F0000F#DF7D7DFF0F7DFF7D
(1665678442.273840) can0 18F00100#FFFFFFFF00FFFFFF
(1665678442.274109) can0 18F00503#7D00007DFFFFFFFF
(1665678442.274440) can0 18FEE000#2700360027003600
(1665678442.274762) can0 18FEF100#FF0000FCFFFF00FF
(1665678442.275097) can0 18FEF200#000000000000FFFF
(1665678442.279914) can0 18F00E3D#00FB00FBFFFFFFFF
(1665678442.280269) can0 18F00F3D#00FB00FBFFFFFFFF
(1665678442.280551) can0 18FD203D#46254625FFFFFFFF
(1665678442.280798) can0 18FFA13D#8B028B021AFFFF30
(1665678442.281804) can0 0CF00203#CC0000FFFF0000FF
(1665678442.282045) can0 0CF00400#007D7D000000F07D
(1665678442.283091) can0 18F0090B#1F7D20647DE67D7D
(1665678442.283791) can0 18FEF117#FFFFFFFFFFFFFFF0
(1665678442.285839) can0 18FEF121#F7FFFFCFFFFFFFFF
(1665678442.287708) can0 18FEF131#CFFFFFF700FFFF3F
(1665678442.291945) can0 0CF00203#CC0000FFFF0000FF
(1665678442.292153) can0 0CF00400#007D7D000000F07D
(1665678442.292895) can0 18F0090B#1F7D20657DE67D7D
(1665678442.294837) can0 14F00121#FFFFFFFFFFFFFFFF
(1665678442.301827) can0 0CF00300#D10000FFFF0C00FF
(1665678442.302017) can0 18FEE925#0000000058950400
(1665678442.302292) can0 0CF00203#CC0000FFFF0000FF
(1665678442.302637) can0 0CF00400#007D7D000000F07D
(1665678442.303170) can0 18F0090B#1F7D20657DE67D7D
(1665678442.306361) can0 0CF00A01#00000000FFFFFFFF
(1665678442.306711) can0 10F01A01#409CFFFFFFFFFFFF
(1665678442.310409) can0 0CF0233D#0000FFFFFF0CFFFF
(1665678442.311788) can0 0C0A0021#FCFFFFFFFFFFFFFF
(1665678442.311912) can0 0CF00203#CC0000FFFF0000FF
(1665678442.312376) can0 0CF00400#007D7D000000F07D
(1665678442.312913) can0 18F0090B#1F7D20667DE67D7D
(1665678442.313841) can0 14F0010B#0F00FFFFFF0DFFFF
(1665678442.314946) can0 18FEBF0B#00007D7D7D7DFFFF
(1665678442.315814) can0 14FDC40B#1F085FFFFFFFFFFF
(1665678442.317797) can0 14FE4F0B#FF00FFFFFFFFFFFF
(1665678442.319808) can0 14FEF031#FFFFFFFFFFFFCCFF
(1665678442.321780) can0 14FF07E6#FFFFFFFFFFFFFFFF
(1665678442.322000) can0 0CF00203#CC0000FFFF0000FF
(1665678442.322326) can0 0CF00400#007D7D000000F07D
(1665678442.322667) can0 10FF0021#02000000FF3F4D3F
(1665678442.322907) can0 18FEDF00#7DFFFFFF7D0000FF
(1665678442.323194) can0 18F0090B#1F7D20667DE67D7D
(1665678442.329203) can0 14FF0097#FFFFC3E501CECE00
(1665678442.329887) can0 18F00E3D#00FB00FBFFFFFFFF
(1665678442.330090) can0 18F00F3D#00FB00FBFFFFFFFF
(1665678442.331838) can0 0CF00203#CC0000FFFF0000FF
(1665678442.332140) can0 0CF00400#007D7D000000F07D
(1665678442.332926) can0 18F0090B#1F7D20687DE67D7D
(1665678442.337843) can0 18F00131#FFFFCFFFFFFFFFFF
(1665678442.341898) can0 0CF00203#CC0000FFFF0000FF
(1665678442.342131) can0 0CF00400#007D7D000000F07D
(1665678442.343199) can0 18F0090B#1F7D20687DE67D7D
(1665678442.351776) can0 0CF00300#D10000FFFF0C00FF
(1665678442.352166) can0 0CF00203#CC0000FFFF0000FF
(1665678442.352451) can0 0CF00400#007D7D000000F07D
(1665678442.353414) can0 18F0090B#1F7D20697DE67D7D
(1665678442.356164) can0 0CF00A01#00000000FFFFFFFF
(1665678442.356749) can0 10F01A01#409CFFFFFFFFFFFF
(1665678442.356885) can0 10FCFD01#FFFFFFFF00000000
(1665678442.357073) can0 18FD9401#6841FFFF00000302
(1665678442.357358) can0 1CFE9201#FFDCADFFFFFFFFFF
(1665678442.358543) can0 18FE9601#FFFFFFFFFF00FFFF
(1665678442.360140) can0 0CF0233D#0000FFFFFF0CFFFF
(1665678442.361825) can0 0CF00203#CC0000FFFF0000FF
(1665678442.362091) can0 0CF00400#007D7D000000F07D
(1665678442.363163) can0 18F0090B#1F7D20697DE67D7D
(1665678442.366126) can0 18FBD600#FFFFFFFFFFFFFFFF
(1665678442.371974) can0 0CF00203#CC0000FFFF0000FF
(1665678442.372190) can0 0CF00400#007D7D000000F07D
(1665678442.372558) can0 18FEDF00#7DFFFFFF7D0000FF
(1665678442.372762) can0 10FF0021#02000000FF3F4D3F
(1665678442.373044) can0 1892FE00#FFFFFFFFFF09FFFF
(1665678442.373417) can0 18F0090B#1F7D20697DE67D7D
(1665678442.373616) can0 18F0000F#DF7D7DFF0F7DFF7D
(1665678442.373988) can0 18F00100#FFFFFFFF00FFFFFF
(1665678442.374274) can0 18F00503#7D00007DFFFFFFFF
(1665678442.374473) can0 18FEE000#2700360027003600
(1665678442.374813) can0 18FEF100#FF0000FCFFFF00FF
(1665678442.375054) can0 18FEF200#000000000000FFFF
(1665678442.379867) can0 18F00E3D#00FB00FBFFFFFFFF
(1665678442.380297) can0 18F00F3D#00FB00FBFFFFFFFF
(1665678442.381882) can0 0CF00203#CC0000FFFF0000FF
(1665678442.382093) can0 0CF00400#007D7D000000F07D
(1665678442.383177) can0 18F0090B#1F7D20697DE67D7D
(1665678442.383853) can0 18FEF117#FFFFFFFFFFFFFFF0
(1665678442.385785) can0 18FEF121#F7FFFFCFFFFFFFFF
(1665678442.387730) can0 18FEF131#CFFFFFF700FFFF3F
(1665678442.391936) can0 0CF00203#CC0000FFFF0000FF
(1665678442.392201) can0 0CF00400#007D7D000000F07D
(1665678442.392921) can0 18F0090B#1F7D20697DE67D7D
(1665678442.394800) can0 14F00121#FFFFFFFFFFFFFFFF
(1665678442.401822) can0 0CF00300#D10000FFFF0C00FF
(1665678442.402065) can0 0CF00203#CC0000FFFF0000FF
(1665678442.402307) can0 0CF00400#007D7D000000F07D
(1665678442.403192) can0 18F0090B#1F7D20687DE67D7D
(1665678442.406333) can0 0CF00A01#00000000FFFFFFFF
(1665678442.406712) can0 10F01A01#409CFFFFFFFFFFFF
(1665678442.410474) can0 0CF0233D#0000FFFFFF0CFFFF
(1665678442.411820) can0 0C0A0021#FCFFFFFFFFFFFFFF
(1665678442.412013) can0 0CF00203#CC0000FFFF0000FF
(1665678442.412307) can0 0CF00400#007D7D000000F07D
(1665678442.413219) can0 18F0090B#1F7D20687DE67D7D
(1665678442.413833) can0 14F0010B#0F00FFFFFF0DFFFF
(1665678442.414932) can0 18FEBF0B#00007D7D7D7DFFFF
(1665678442.415824) can0 14FDC40B#1F085FFFFFFFFFFF
(1665678442.417830) can0 14FE4F0B#FF00FFFFFFFFFFFF
(1665678442.419834) can0 14FEF031#FFFFFFFFFFFFCCFF
(1665678442.421829) can0 14FF07E6#FFFFFFFFFFFFFFFF
(1665678442.422024) can0 0CF00203#CC0000FFFF0000FF
(1665678442.422317) can0 0CF00400#007D7D000000F07D
(1665678442.422610) can0 10FF0021#02000000FF3F4D3F
(1665678442.423002) can0 18FEDF00#7DFFFFFF7D0000FF
(1665678442.423190) can0 18F0090B#1F7D20687DE67D7D
(1665678442.429909) can0 18F00E3D#00FB00FBFFFFFFFF
(1665678442.430113) can0 18F00F3D#00FB00FBFFFFFFFF
(1665678442.430651) can0 14FF0097#FFFFC3E501CECE00
(1665678442.431819) can0 18FDB300#FFFF4625FFFFFFFF
(1665678442.432044) can0 0CF00203#CC0000FFFF0000FF
(1665678442.432408) can0 0CF00400#007D7D000000F07D
(1665678442.432611) can0 18FDB43D#46254625FFFFFFFF
(1665678442.432891) can0 18F0090B#1F7D20697DE67D7D
(1665678442.433249) can0 18FEF600#FF004130FFFFFFFF
(1665678442.433442) can0 18FEFC00#FFC6FFFFFFFFFFFF
(1665678442.437804) can0 18F00131#FFFFCFFFFFFFFFFF
(1665678442.441914) can0 0CF00203#CC0000FFFF0000FF
(1665678442.442135) can0 0CF00400#007D7D000000F07D
(1665678442.442934) can0 18F0090B#1F7D20697DE67D7D
(1665678442.451797) can0 0CF00300#D10000FFFF0C00FF
(1665678442.452179) can0 0CF00203#CC0000FFFF0000FF
(1665678442.452435) can0 0CF00400#007D7D000000F07D
(1665678442.453241) can0 18F0090B#1F7D20697DE67D7D
(1665678442.456163) can0 0CF00A01#00000000FFFFFFFF
(1665678442.456529) can0 10F01A01#409CFFFFFFFFFFFF
(1665678442.456848) can0 10FCFD01#FFFFFFFF00000000
(1665678442.457099) can0 18FD9401#6841FFFF00000302
(1665678442.457384) can0 1CFE9201#FFDCADFFFFFFFFFF
(1665678442.458528) can0 18FE9601#FFFFFFFFFF00FFFF
(1665678442.460145) can0 0CF0233D#0000FFFFFF0CFFFF
(1665678442.461839) can0 0CF00203#CC0000FFFF0000FF
(1665678442.462105) can0 0CF00400#007D7D000000F07D
(1665678442.463269) can0 18F0090B#1F7D20687DE67D7D
(1665678442.466133) can0 18FBD600#FFFFFFFFFFFFFFFF
(1665678442.471961) can0 0CF00203#CC0000FFFF0000FF
(1665678442.472241) can0 0CF00400#007D7D000000F07D
(1665678442.472501) can0 10FF0021#02000000FF3F4D3F
(1665678442.472798) can0 18FEDF00#7DFFFFFF7D0000FF
(1665678442.473062) can0 18F0090B#1F7D20687DE67D7D
(1665678442.473366) can0 1892FE00#FFFFFFFFFF09FFFF
(1665678442.473707) can0 18F0000F#DF7D7DFF0F7DFF7D
(1665678442.473824) can0 18F00100#FFFFFFFF00FFFFFF
(1665678442.474107) can0 18F00503#7D00007DFFFFFFFF
(1665678442.474486) can0 18FEE000#2700360027003600
(1665678442.474773) can0 18FEF100#FF0000FCFFFF00FF
(1665678442.475161) can0 18FEF200#000000000000FFFF
(1665678442.475436) can0 18FEEF00#00FFFF00FFFFFFFA
(1665678442.479903) can0 18F00E3D#00FB00FBFFFFFFFF
(1665678442.480305) can0 18F00F3D#00FB00FBFFFFFFFF
(1665678442.481884) can0 0CF00203#CC0000FFFF0000FF
(1665678442.482091) can0 0CF00400#007D7D000000F07D
(1665678442.483180) can0 18F0090B#1F7D20667DE67D7D
(1665678442.483782) can0 18FEF117#FFFFFFFFFFFFFFF0
(1665678442.485843) can0 18FEF121#F7FFFFCFFFFFFFFF
(1665678442.487837) can0 18FEF131#CFFFFFF700FFFF3F
(1665678442.491944) can0 0CF00203#CC0000FFFF0000FF
(1665678442.492166) can0 0CF00400#007D7D000000F07D
(1665678442.492918) can0 18F0090B#1F7D20667DE67D7D
(1665678442.494812) can0 14F00121#FFFFFFFFFFFFFFFF
(1665678442.501819) can0 0CF00300#D10000FFFF0C00FF
(1665678442.502020) can0 0CF00203#CC0000FFFF0000FF
(1665678442.502314) can0 0CF00400#007D7D000000F07D
(1665678442.503181) can0 18F0090B#1F7D20657DE67D7D
(1665678442.506343) can0 0CF00A01#00000000FFFFFFFF
(1665678442.506718) can0 10F01A01#409CFFFFFFFFFFFF
(1665678442.510504) can0 0CF0233D#0000FFFFFF0CFFFF
(1665678442.511799) can0 0C0A0021#FCFFFFFFFFFFFFFF
(1665678442.512036) can0 0CF00203#CC0000FFFF0000FF
(1665678442.512332) can0 0CF00400#007D7D000000F07D
(1665678442.512914) can0 18F0090B#1F7D20657DE67D7D
(1665678442.513809) can0 14F0010B#0F00FFFFFF0DFFFF
(1665678442.514923) can0 18FEBF0B#00007D7D7D7DFFFF
(1665678442.515832) can0 14FDC40B#1F085FFFFFFFFFFF
(1665678442.517831) can0 14FE4F0B#FF00FFFFFFFFFFFF
(1665678442.518864) can0 18EAFFFB#E9FE00
(1665678442.519258) can0 18EAFFFB#AFFE00
(1665678442.519673) can0 18EAFFFB#C3FE00
(1665678442.519874) can0 14FEF031#FFFFFFFFFFFFCCFF
(1665678442.521826) can0 14FF07E6#FFFFFFFFFFFFFFFF
(1665678442.522037) can0 0CF00203#CC0000FFFF0000FF
(1665678442.522363) can0 0CF00400#007D7D000000F07D
(1665678442.522611) can0 10FF0021#02000000FF3F4D3F
(1665678442.522880) can0 18FEDF00#7DFFFFFF7D0000FF
(1665678442.523141) can0 18F0090B#1F7D20647DE67D7D
(1665678442.529872) can0 18F00E3D#00FB00FBFFFFFFFF
(1665678442.530107) can0 18F00F3D#00FB00FBFFFFFFFF
(1665678442.531822) can0 14FF0097#FFFFC3E501CECE00
(1665678442.532114) can0 0CF00203#CC0000FFFF0000FF
(1665678442.532404) can0 0CF00400#007D7D000000F07D
(1665678442.532929) can0 18F0090B#1F7D20647DE67D7D
(1665678442.537796) can0 18F00131#FFFFCFFFFFFFFFFF
(1665678442.541856) can0 0CF00203#CC0000FFFF0000FF
(1665678442.542137) can0 0CF00400#007D7D000000F07D
(1665678442.542920) can0 18F0090B#1F7D20647DE67D7D
(1665678442.551826) can0 0CF00300#D10000FFFF0C00FF
(1665678442.552203) can0 0CF00203#CC0000FFFF0000FF
(1665678442.552341) can0 0CF00400#007D7D000000F07D
(1665678442.553201) can0 18F0090B#1F7D20657DE67D7D
(1665678442.556139) can0 0CF00A01#00000000FFFFFFFF
(1665678442.556556) can0 10F01A01#409CFFFFFFFFFFFF
(1665678442.556827) can0 10FCFD01#FFFFFFFF00000000
(1665678442.557104) can0 18FD9401#6841FFFF00000302
(1665678442.557394) can0 1CFE9201#FFDCADFFFFFFFFFF
(1665678442.558542) can0 18FE9601#FFFFFFFFFF00FFFF
(1665678442.560189) can0 0CF0233D#0000FFFFFF0CFFFF
(1665678442.561919) can0 0CF00203#CC0000FFFF0000FF
(1665678442.562105) can0 0CF00400#007D7D000000F07D
(1665678442.563268) can0 18F0090B#1F7D20657DE67D7D
(1665678442.566249) can0 18FBD600#FFFFFFFFFFFFFFFF
(1665678442.572056) can0 0CF00203#CC0000FFFF0000FF
(1665678442.572251) can0 0CF00400#007D7D000000F07D
(1665678442.572554) can0 10FF0021#02000000FF3F4D3F
(1665678442.572827) can0 18FEDF00#7DFFFFFF7D0000FF
(1665678442.573128) can0 18F0090B#1F7D20667DE67D7D
(1665678442.573540) can0 1892FE00#FFFFFFFFFF09FFFF
(1665678442.573735) can0 18F0000F#DF7D7DFF0F7DFF7D
(1665678442.573991) can0 18F00100#FFFFFFFF00FFFFFF
(1665678442.574158) can0 18F00503#7D00007DFFFFFFFF
(1665678442.574544) can0 18FEE000#2700360027003600
(1665678442.574807) can0 18FEF100#FF0000FCFFFF00FF
(1665678442.575211) can0 18FEF200#000000000000FFFF
(1665678442.579890) can0 18F00E3D#00FB00FBFFFFFFFF
(1665678442.580391) can0 18F00F3D#00FB00FBFFFFFFFF
(1665678442.581946) can0 0CF00203#CC0000FFFF0000FF
(1665678442.582177) can0 0CF00400#007D7D000000F07D
(1665678442.583283) can0 18F0090B#1F7D20687DE67D7D
(1665678442.583867) can0 18FEF117#FFFFFFFFFFFFFFF0
(1665678442.585939) can0 18FEF121#F7FFFFCFFFFFFFFF
(1665678442.587900) can0 18FEF131#CFFFFFF700FFFF3F
(1665678442.592013) can0 0CF00203#CC0000FFFF0000FF
(1665678442.592256) can0 0CF00400#007D7D000000F07D
(1665678442.593023) can0 18F0090B#1F7D20687DE67D7D
(1665678442.594870) can0 14F00121#FFFFFFFFFFFFFFFF
(1665678442.601865) can0 0CF00300#D10000FFFF0C00FF
(1665678442.602109) can0 0CF00203#CC0000FFFF0000FF
(1665678442.602348) can0 0CF00400#007D7D000000F07D
(1665678442.603268) can0 18F0090B#1F7D20687DE67D7D
(1665678442.606444) can0 0CF00A01#00000000FFFFFFFF
(1665678442.606778) can0 10F01A01#409CFFFFFFFFFFFF
(1665678442.610519) can0 0CF0233D#0000FFFFFF0CFFFF
(1665678442.611900) can0 0C0A0021#FCFFFFFFFFFFFFFF
(1665678442.612082) can0 0CF00203#CC0000FFFF0000FF
(1665678442.612436) can0 0CF00400#007D7D000000F07D
(1665678442.612984) can0 18F0090B#1F7D20687DE67D7D
(1665678442.613924) can0 14F0010B#0F00FFFFFF0DFFFF
(1665678442.615036) can0 18FEBF0B#00007D7D7D7DFFFF
(1665678442.615948) can0 14FDC40B#1F085FFFFFFFFFFF
(1665678442.617867) can0 14FE4F0B#FF00FFFFFFFFFFFF
(1665678442.619890) can0 14FEF031#FFFFFFFFFFFFCCFF
(1665678442.621907) can0 14FF07E6#FFFFFFFFFFFFFFFF
(1665678442.622144) can0 0CF00203#CC0000FFFF0000FF
(1665678442.622399) can0 0CF00400#007D7D000000F07D
(1665678442.622730) can0 10FF0021#02000000FF3F4D3F
(1665678442.623039) can0 18FEDF00#7DFFFFFF7D0000FF
(1665678442.623300) can0 18F0090B#1F7D20687DE67D7D
(1665678442.623715) can0 14FF08E6#FFFFFFFFFFFFFFFF
(1665678442.629975) can0 18F00E3D#00FB00FBFFFFFFFF
(1665678442.630189) can0 18F00F3D#00FB00FBFFFFFFFF
(1665678442.631320) can0 18FD8C3D#00001100FFFFFFFF
(1665678442.631543) can0 18FDB23D#0000462500000000
(1665678442.631939) can0 18FBF53D#FFFFFFFF0000FFFF
(1665678442.632206) can0 0CF00203#CC0000FFFF0000FF
(1665678442.632583) can0 0CF00400#007D7D000000F07D
(1665678442.633016) can0 18F0090B#1F7D20687DE67D7D
(1665678442.633548) can0 14FF0097#FFFFC3E501CECE00
(1665678442.637889) can0 18F00131#FFFFCFFFFFFFFFFF
(1665678442.641989) can0 0CF00203#CC0000FFFF0000FF
(1665678442.642230) can0 0CF00400#007D7D000000F07D
(1665678442.642935) can0 18F0090B#1F7D20667DE67D7D
(1665678442.651877) can0 0CF00300#D10000FFFF0C00FF
(1665678442.651963) can0 0CF00203#CC0000FFFF0000FF
(1665678442.652448) can0 0CF00400#007D7D000000F07D
(1665678442.653296) can0 18F0090B#1F7D20667DE67D7D
(1665678442.656190) can0 0CF00A01#00000000FFFFFFFF
(1665678442.656599) can0 10F01A01#409CFFFFFFFFFFFF
(1665678442.656969) can0 10FCFD01#FFFFFFFF00000000
(1665678442.657153) can0 18FD9401#6841FFFF00000302
(1665678442.657449) can0 1CFE9201#FFDCADFFFFFFFFFF
(1665678442.658580) can0 18FE9601#FFFFFFFFFF00FFFF
(1665678442.659401) can0 18FD6501#DD01FFFFFFFFFFFF
(1665678442.659529) can0 18FDA101#B303FFFFFFFF00FF
(1665678442.659866) can0 18FDAA01#FFFFFFFFFFFFFFFF
(1665678442.660304) can0 0CF0233D#0000FFFFFF0CFFFF
(1665678442.660581) can0 18FD413D#FFFFFFFFFCFCFCFC
(1665678442.660864) can0 18FDD001#FFFFFF0030FFFFFF
(1665678442.661128) can0 18FEDB01#7601760176017601
(1665678442.661937) can0 0CF00203#CC0000FFFF0000FF
(1665678442.662104) can0 0CF00400#007D7D000000F07D
(1665678442.663057) can0 18F0090B#1F7D20667DE67D7D
(1665678442.665993) can0 18FBD600#FFFFFFFFFFFFFFFF
(1665678442.671971) can0 0CF00203#CC0000FFFF0000FF
(1665678442.672260) can0 0CF00400#007D7D000000F07D
(1665678442.672518) can0 18FEDF00#7DFFFFFF7D0000FF
(1665678442.672800) can0 10FF0021#02000000FF3F4D3F
(1665678442.673141) can0 1892FE00#FFFFFFFFFF09FFFF
(1665678442.673387) can0 18F0090B#1F7D20667DE67D7D
(1665678442.673656) can0 18F0000F#DF7D7DFF0F7DFF7D
(1665678442.673848) can0 18F00100#FFFFFFFF00FFFFFF
(1665678442.674142) can0 18F00503#7D00007DFFFFFFFF
(1665678442.674436) can0 18FEE000#2700360027003600
(1665678442.674756) can0 18FEF100#FF0000FCFFFF00FF
(1665678442.675104) can0 18FEF200#000000000000FFFF
(1665678442.679750) can0 18F00E3D#00FB00FBFFFFFFFF
(1665678442.680158) can0 18F00F3D#00FB00FBFFFFFFFF
(1665678442.680527) can0 18FD3E00#FFFFFF4325FFFFFF
(1665678442.681811) can0 0CF00203#CC0000FFFF0000FF
(1665678442.682108) can0 0CF00400#007D7D000000F07D
(1665678442.683108) can0 18F0090B#1F7D20667DE67D7D
(1665678442.683783) can0 18FEF117#FFFFFFFFFFFFFFF0
(1665678442.685768) can0 18FEF121#F7FFFFCFFFFFFFFF
(1665678442.687731) can0 18FEF131#CFFFFFF700FFFF3F
(1665678442.691849) can0 0CF00203#CC0000FFFF0000FF
(1665678442.692188) can0 0CF00400#007D7D000000F07D
(1665678442.692890) can0 18F0090B#1F7D20667DE67D7D
(1665678442.694732) can0 14F00121#FFFFFFFFFFFFFFFF
(1665678442.701892) can0 0CF00300#D10000FFFF0C00FF
(1665678442.702158) can0 0CF00203#CC0000FFFF0000FF
(1665678442.702508) can0 0CF00400#007D7D000000F07D
(1665678442.703265) can0 18F0090B#1F7D20687DE67D7D
(1665678442.706366) can0 0CF00A01#00000000FFFFFFFF
(1665678442.706775) can0 10F01A01#409CFFFFFFFFFFFF
(1665678442.710463) can0 0CF0233D#0000FFFFFF0CFFFF
(1665678442.711816) can0 0C0A0021#FCFFFFFFFFFFFFFF
(1665678442.712023) can0 0CF00203#CC0000FFFF0000FF
(1665678442.712347) can0 0CF00400#007D7D000000F07D
(1665678442.712897) can0 18F0090B#1F7D20687DE67D7D
(1665678442.713830) can0 14F0010B#0F00FFFFFF0DFFFF
(1665678442.714961) can0 18FEBF0B#00007D7D7D7DFFFF
(1665678442.715812) can0 14FDC40B#1F085FFFFFFFFFFF
(1665678442.717778) can0 14FE4F0B#FF00FFFFFFFFFFFF
(1665678442.719808) can0 14FEF031#FFFFFFFFFFFFCCFF
(1665678442.721818) can0 14FF07E6#FFFFFFFFFFFFFFFF
(1665678442.722037) can0 0CF00203#CC0000FFFF0000FF
(1665678442.722335) can0 0CF00400#007D7D000000F07D
(1665678442.722645) can0 10FF0021#02000000FF3F4D3F
(1665678442.722940) can0 18FEDF00#7DFFFFFF7D0000FF
(1665678442.723206) can0 18F0090B#1F7D20687DE67D7D
(1665678442.729894) can0 18F00E3D#00FB00FBFFFFFFFF
(1665678442.730104) can0 18F00F3D#00FB00FBFFFFFFFF
(1665678442.731947) can0 0CF00203#CC0000FFFF0000FF
(1665678442.732189) can0 0CF00400#007D7D000000F07D
(1665678442.732964) can0 18F0090B#1F7D20697DE67D7D
(1665678442.734149) can0 14FF0097#FFFFC3E501CECE00
(1665678442.737802) can0 18F00131#FFFFCFFFFFFFFFFF
(1665678442.741915) can0 0CF00203#CC0000FFFF0000FF
(1665678442.742138) can0 0CF00400#007D7D000000F07D
(1665678442.742952) can0 18F0090B#1F7D20697DE67D7D
(1665678442.751830) can0 0CF00300#D10000FFFF0C00FF
(1665678442.752134) can0 0CF00203#CC0000FFFF0000FF
(1665678442.752388) can0 0CF00400#007D7D000000F07D
(1665678442.753207) can0 18F0090B#1F7D20697DE67D7D
(1665678442.756200) can0 0CF00A01#00000000FFFFFFFF
(1665678442.756548) can0 10F01A01#409CFFFFFFFFFFFF
(1665678442.756845) can0 10FCFD01#FFFFFFFF00000000
(1665678442.757097) can0 18FD9401#6841FFFF00000302
(1665678442.757427) can0 1CFE9201#FFDCADFFFFFFFFFF
(1665678442.758500) can0 18FE9601#FFFFFFFFFF00FFFF
(1665678442.760177) can0 0CF0233D#0000FFFFFF0CFFFF
(1665678442.761970) can0 0CF00203#CC0000FFFF0000FF
(1665678442.762133) can0 0CF00400#007D7D000000F07D
(1665678442.763194) can0 18F0090B#1F7D20687DE67D7D
(1665678442.766132) can0 18FBD600#FFFFFFFFFFFFFFFF
(1665678442.772031) can0 0CF00203#CC0000FFFF0000FF
(1665678442.772416) can0 0CF00400#007D7D000000F07D
(1665678442.772571) can0 18FEDF00#7DFFFFFF7D0000FF
(1665678442.772887) can0 10FF0021#02000000FF3F4D3F
(1665678442.773200) can0 1892FE00#FFFFFFFFFF09FFFF
(1665678442.773416) can0 18F0090B#1F7D20687DE67D7D
(1665678442.773622) can0 18F0000F#DF7D7DFF0F7DFF7D
(1665678442.773884) can0 18F00100#FFFFFFFF00FFFFFF
(1665678442.774209) can0 18F00503#7D00007DFFFFFFFF
(1665678442.774530) can0 18FEE000#2700360027003600
(1665678442.774795) can0 18FEF100#FF0000FCFFFF00FF
(1665678442.775071) can0 18FEF200#000000000000FFFF
(1665678442.779729) can0 18F00E3D#00FB00FBFFFFFFFF
(1665678442.780265) can0 18F00F3D#00FB00FBFFFFFFFF
(1665678442.780509) can0 18FD203D#46254625FFFFFFFF
(1665678442.781817) can0 0CF00203#CC0000FFFF0000FF
(1665678442.782095) can0 0CF00400#007D7D000000F07D
(1665678442.783106) can0 18F0090B#1F7D20687DE67D7D
(1665678442.783779) can0 18FEF117#FFFFFFFFFFFFFFF0
(1665678442.785689) can0 18FEF121#F7FFFFCFFFFFFFFF
(1665678442.787643) can0 18FEF131#CFFFFFF700FFFF3F
(1665678442.791859) can0 0CF00203#CC0000FFFF0000FF
(1665678442.792135) can0 0CF00400#007D7D000000F07D
(1665678442.792872) can0 18F0090B#1F7D20667DE67D7D
(1665678442.794719) can0 14F00121#FFFFFFFFFFFFFFFF
(1665678442.794993) can0 10FECA25#00FF00000000FFFF
(1665678442.801739) can0 0CF00300#D10000FFFF0C00FF
(1665678442.801982) can0 0CF00203#CC0000FFFF0000FF
(1665678442.802276) can0 0CF00400#007D7D000000F07D
(1665678442.803123) can0 18F0090B#1F7D20667DE67D7D
(1665678442.806263) can0 0CF00A01#00000000FFFFFFFF
(1665678442.806707) can0 10F01A01#409CFFFFFFFFFFFF
(1665678442.810384) can0 0CF0233D#0000FFFFFF0CFFFF
(1665678442.811747) can0 0C0A0021#FCFFFFFFFFFFFFFF
(1665678442.812107) can0 0CF00203#CC0000FFFF0000FF
(1665678442.812289) can0 0CF00400#007D7D000000F07D
(1665678442.812856) can0 18F0090B#1F7D20667DE67D7D
(1665678442.813783) can0 14F0010B#0F00FFFFFF0DFFFF
(1665678442.814895) can0 18FEBF0B#00007D7D7D7DFFFF
(1665678442.815741) can0 14FDC40B#1F085FFFFFFFFFFF
(1665678442.817728) can0 14FE4F0B#FF00FFFFFFFFFFFF
(1665678442.819770) can0 14FEF031#FFFFFFFFFFFFCCFF
(1665678442.821837) can0 14FF07E6#FFFFFFFFFFFFFFFF
(1665678442.822107) can0 0CF00203#CC0000FFFF0000FF
(1665678442.822383) can0 0CF00400#007D7D000000F07D
(1665678442.822652) can0 10FF0021#02000000FF3F4D3F
(1665678442.822993) can0 18FEDF00#7DFFFFFF7D0000FF
(1665678442.823235) can0 18F0090B#1F7D20657DE67D7D
(1665678442.824734) can0 18FF0421#FFFFFFFFFFFB73DC
(1665678442.829887) can0 18F00E3D#00FB00FBFFFFFFFF
(1665678442.830148) can0 18F00F3D#00FB00FBFFFFFFFF
(1665678442.831976) can0 0CF00203#CC0000FFFF0000FF
(1665678442.832210) can0 0CF00400#007D7D000000F07D
(1665678442.832965) can0 18F0090B#1F7D20657DE67D7D
(1665678442.837844) can0 18F00131#FFFFCFFFFFFFFFFF
(1665678442.841920) can0 0CF00203#CC0000FFFF0000FF
(1665678442.842178) can0 0CF00400#007D7D000000F07D
(1665678442.842962) can0 18F0090B#1F7D20647DE67D7D
(1665678442.846386) can0 14FF0097#FFFFC3E501CECE00
(1665678442.851815) can0 0CF00300#D10000FFFF0C00FF
(1665678442.852105) can0 0CF00203#CC0000FFFF0000FF
(1665678442.852374) can0 0CF00400#007D7D000000F07D
(1665678442.853237) can0 18F0090B#1F7D20647DE67D7D
(1665678442.856219) can0 0CF00A01#00000000FFFFFFFF
(1665678442.856806) can0 10F01A01#409CFFFFFFFFFFFF
(1665678442.857076) can0 10FCFD01#FFFFFFFF00000000
(1665678442.857392) can0 18FD9401#6841FFFF00000302
(1665678442.857663) can0 1CFE9201#FFDCADFFFFFFFFFF
(1665678442.859018) can0 18FE9601#FFFFFFFFFF00FFFF
(1665678442.860206) can0 0CF0233D#0000FFFFFF0CFFFF
(1665678442.861902) can0 0CF00203#CC0000FFFF0000FF
(1665678442.862194) can0 0CF00400#007D7D000000F07D
(1665678442.863188) can0 18F0090B#1F7D20647DE67D7D
(1665678442.866144) can0 18FBD600#FFFFFFFFFFFFFFFF
(1665678442.871975) can0 0CF00203#CC0000FFFF0000FF
(1665678442.872539) can0 0CF00400#007D7D000000F07D
(1665678442.872544) can0 18FEDF00#7DFFFFFF7D0000FF
(1665678442.873119) can0 10FF0021#02000000FF3F4D3F
(1665678442.873122) can0 1892FE00#FFFFFFFFFF09FFFF
(1665678442.873454) can0 18F0090B#1F7D20647DE67D7D
(1665678442.873704) can0 18F0000F#DF7D7DFF0F7DFF7D
(1665678442.873983) can0 18F00100#FFFFFFFF00FFFFFF
(1665678442.874212) can0 18F00503#7D00007DFFFFFFFF
(1665678442.874484) can0 18FEE000#2700360027003600
(1665678442.874834) can0 18FEF100#FF0000FCFFFF00FF
(1665678442.875074) can0 18FEF200#000000000000FFFF
(1665678442.879761) can0 18F00E3D#00FB00FBFFFFFFFF
(1665678442.880296) can0 18F00F3D#00FB00FBFFFFFFFF
(1665678442.881916) can0 0CF00203#CC0000FFFF0000FF
(1665678442.882072) can0 18FFC025#430CFF4050F0FFFF
(1665678442.882417) can0 0CF00400#007D7D000000F07D
(1665678442.883125) can0 18F0090B#1F7D20627DE67D7D
(1665678442.883779) can0 18FEF117#FFFFFFFFFFFFFFF0
(1665678442.885845) can0 18FEF121#F7FFFFCFFFFFFFFF
(1665678442.887772) can0 18FEF131#CFFFFFF700FFFF3F
(1665678442.887992) can0 18FFC125#FFFC5AC000000000
(1665678442.891939) can0 0CF00203#CC0000FFFF0000FF
(1665678442.892150) can0 0CF00400#007D7D000000F07D
(1665678442.893144) can0 18F0090B#1F7D20627DE67D7D
(1665678442.893957) can0 18FFC225#00102F012F015700
(1665678442.894681) can0 14F00121#FFFFFFFFFFFFFFFF
(1665678442.895675) can0 18FD0517#7FFFFFFFFFFFFFFF
(1665678442.899889) can0 18FFC325#2541F350200041C0
(1665678442.901736) can0 0CF00300#D10000FFFF0C00FF
(1665678442.901982) can0 0CF00203#CC0000FFFF0000FF
(1665678442.902319) can0 0CF00400#007D7D000000F07D
(1665678442.902864) can0 18F0090B#1F7D20647DE67D7D
(1665678442.905973) can0 18FFC425#13D413D4F0FFF0FF
(1665678442.906269) can0 0CF00A01#00000000FFFFFFFF
(1665678442.906561) can0 18FF0817#000C0000FFFFFFFF
(1665678442.906861) can0 10F01A01#409CFFFFFFFFFFFF
(1665678442.910376) can0 0CF0233D#0000FFFFFF0CFFFF
(1665678442.911742) can0 0C0A0021#FCFFFFFFFFFFFFFF
(1665678442.911931) can0 0CF00203#CC0000FFFF0000FF
(1665678442.912308) can0 18FFC725#4300FCFFFFFFFFFF
(1665678442.912553) can0 0CF00400#007D7D000000F07D
(1665678442.913169) can0 18F0090B#1F7D20647DE67D7D
(1665678442.913794) can0 14F0010B#0F00FFFFFF0DFFFF
(1665678442.915497) can0 18FEBF0B#00007D7D7D7DFFFF
(1665678442.915754) can0 14FDC40B#1F085FFFFFFFFFFF
(1665678442.917747) can0 14FE4F0B#FF00FFFFFFFFFFFF
(1665678442.918012) can0 18FFC525#0105151401440011
(1665678442.919767) can0 14FEF031#FFFFFFFFFFFFCCFF
(1665678442.921759) can0 14FF07E6#FFFFFFFFFFFFFFFF
(1665678442.922009) can0 0CF00203#CC0000FFFF0000FF
(1665678442.922329) can0 10FF0021#02000000FF3F4D3F
(1665678442.922591) can0 0CF00400#007D7D000000F07D
(1665678442.922853) can0 18F0090B#1F7D20657DE67D7D
(1665678442.923153) can0 18FEDF00#7DFFFFFF7D0000FF
(1665678442.923903) can0 18FFC625#1040000000002017
(1665678442.929820) can0 18F00E3D#00FB00FBFFFFFFFF
(1665678442.930080) can0 18FFC925#000000000000F0FF
(1665678442.930342) can0 18F00F3D#00FB00FBFFFFFFFF
(1665678442.931789) can0 18FDB300#FFFF4625FFFFFFFF
(1665678442.932048) can0 0CF00203#CC0000FFFF0000FF
(1665678442.932316) can0 0CF00400#007D7D000000F07D
(1665678442.932648) can0 18FDB43D#46254625FFFFFFFF
(1665678442.932908) can0 18F0090B#1F7D20657DE67D7D
(1665678442.933115) can0 18FEF600#FF004130FFFFFFFF
(1665678442.935703) can0 18FE700B#FFFFFFFFFFFFFFFF
(1665678442.936105) can0 18FFCA25#01465F5FAC0D6419
(1665678442.937764) can0 18F00131#FFFFCFFFFFFFFFFF
(1665678442.941872) can0 0CF00203#CC0000FFFF0000FF
(1665678442.942123) can0 0CF00400#007D7D000000F07D
(1665678442.942895) can0 18F0090B#1F7D20667DE67D7D
(1665678442.947271) can0 14FF0097#FFFFC3E501CECE00
(1665678442.951820) can0 0CF00300#D10000FFFF0C00FF
(1665678442.952009) can0 0CF00203#CC0000FFFF0000FF
(1665678442.952386) can0 0CF00400#007D7D000000F07D
(1665678442.953240) can0 18F0090B#1F7D20667DE67D7D
(1665678442.956209) can0 0CF00A01#00000000FFFFFFFF
(1665678442.956520) can0 10F01A01#409CFFFFFFFFFFFF
(1665678442.956978) can0 10FCFD01#FFFFFFFF00000000
(1665678442.957198) can0 18FD9401#6841FFFF00000302
(1665678442.957556) can0 1CFE9201#FFDCADFFFFFFFFFF
(1665678442.958934) can0 18FE9601#FFFFFFFFFF00FFFF
(1665678442.960224) can0 0CF0233D#0000FFFFFF0CFFFF
(1665678442.961928) can0 0CF00203#CC0000FFFF0000FF
(1665678442.962251) can0 0CF00400#007D7D000000F07D
(1665678442.962515) can0 18FECA00#03FF00000000FFFF
(1665678442.963204) can0 18F0090B#1F7D20687DE67D7D
(1665678442.966150) can0 18FBD600#FFFFFFFFFFFFFFFF
(1665678442.971994) can0 0CF00203#CC0000FFFF0000FF
(1665678442.972266) can0 0CF00400#007D7D000000F07D
(1665678442.972553) can0 10FF0021#02000000FF3F4D3F
(1665678442.972845) can0 18FEDF00#7DFFFFFF7D0000FF
(1665678442.973116) can0 18F0090B#1F7D20687DE67D7D
(1665678442.973451) can0 1892FE00#FFFFFFFFFF09FFFF
(1665678442.973735) can0 18F0000F#DF7D7DFF0F7DFF7D
(1665678442.973961) can0 18F00100#FFFFFFFF00FFFFFF
(1665678442.974258) can0 18F00503#7D00007DFFFFFFFF
(1665678442.974531) can0 18FEE000#2700360027003600
(1665678442.974923) can0 18FEF100#FF0000FCFFFF00FF
(1665678442.975137) can0 18FEF200#000000000000FFFF
(1665678442.975466) can0 18FEEF00#00FFFF00FFFFFFFA
(1665678442.975697) can0 18FD0900#0000000033B70709
(1665678442.976089) can0 18FDE000#FFFFFFFFFFFFFFFF
(1665678442.976345) can0 18FEC100#D2034605D2034605
(1665678442.976709) can0 18FEE400#FF7FFFFFFFFFFFFF
(1665678442.976912) can0 18FEF500#C3FFFFF224FFFFFF
(1665678442.977217) can0 18FEF700#FFFFFFFFFD00FFFF
(1665678442.977563) can0 18FF7400#5D00FFFFFFCFFFFF
(1665678442.979739) can0 18F00E3D#00FB00FBFFFFFFFF
(1665678442.980138) can0 18F00F3D#00FB00FBFFFFFFFF
(1665678442.981806) can0 0CF00203#CC0000FFFF0000FF
(1665678442.982049) can0 0CF00400#007D7D000000F07D
(1665678442.982777) can0 18F0090B#1F7D20687DE67D7D
(1665678442.983722) can0 18FEF117#FFFFFFFFFFFFFFF0
(1665678442.985685) can0 18FEF121#F7FFFFCFFFFFFFFF
(1665678442.987683) can0 18FEF131#CFFFFFF700FFFF3F
(1665678442.991787) can0 0CF00203#CC0000FFFF0000FF
(1665678442.992157) can0 0CF00400#007D7D000000F07D
(1665678442.992890) can0 18F0090B#1F7D20687DE67D7D
(1665678442.994670) can0 14F00121#FFFFFFFFFFFFFFFF
(1665678443.001775) can0 0CF00300#D10000FFFF0C00FF
(1665678443.002019) can0 0CF00203#CC0000FFFF0000FF
(1665678443.002303) can0 0CF00400#007D7D000000F07D
(1665678443.003175) can0 18F0090B#1F7D20667DE67D7D
(1665678443.006362) can0 0CF00A01#00000000FFFFFFFF
(1665678443.006826) can0 10F01A01#409CFFFFFFFFFFFF
(1665678443.010456) can0 0CF0233D#0000FFFFFF0CFFFF
(1665678443.011817) can0 0C0A0021#FCFFFFFFFFFFFFFF
(1665678443.012099) can0 0CF00203#CC0000FFFF0000FF
(1665678443.012377) can0 0CF00400#007D7D000000F07D
(1665678443.012966) can0 18F0090B#1F7D20667DE67D7D
(1665678443.013819) can0 14F0010B#0F00FFFFFF0DFFFF
(1665678443.014976) can0 18FEBF0B#00007D7D7D7DFFFF
(1665678443.015840) can0 14FDC40B#1F085FFFFFFFFFFF
(1665678443.017798) can0 14FE4F0B#FF00FFFFFFFFFFFF
(1665678443.019831) can0 14FEF031#FFFFFFFFFFFFCCFF
(1665678443.021838) can0 14FF07E6#FFFFFFFFFFFFFFFF
(1665678443.022079) can0 0CF00203#CC0000FFFF0000FF
(1665678443.022370) can0 10FF0021#02000000FF3F4D3F
(1665678443.022655) can0 0CF00400#007D7D000000F07D
(1665678443.022950) can0 18F0090B#1F7D20667DE67D7D
(1665678443.023241) can0 18FEDF00#7DFFFFFF7D0000FF
(1665678443.025542) can0 1CDE0317#F0FFFFFFFFFFFFFF
(1665678443.029913) can0 18F00E3D#00FB00FBFFFFFFFF
(1665678443.030203) can0 18F00F3D#00FB00FBFFFFFFFF
(1665678443.031979) can0 0CF00203#CC0000FFFF0000FF
(1665678443.032266) can0 0CF00400#007D7D000000F07D
(1665678443.032980) can0 18F0090B#1F7D20657DE67D7D
(1665678443.037847) can0 18F00131#FFFFCFFFFFFFFFFF
(1665678443.041966) can0 0CF00203#CC0000FFFF0000FF
(1665678443.042228) can0 0CF00400#007D7D000000F07D
(1665678443.042973) can0 18F0090B#1F7D20657DE67D7D
(1665678443.048295) can0 14FF0097#FFFFC3E501CECE00
(1665678443.051847) can0 0CF00300#D10000FFFF0C00FF
(1665678443.052123) can0 0CF00203#CC0000FFFF0000FF
(1665678443.052400) can0 0CF00400#007D7D000000F07D
(1665678443.052930) can0 18F0090B#1F7D20657DE67D7D
(1665678443.056137) can0 0CF00A01#00000000FFFFFFFF
(1665678443.056593) can0 10F01A01#409CFFFFFFFFFFFF
(1665678443.057034) can0 10FCFD01#FFFFFFFF00000000
(1665678443.057291) can0 18FD9401#6841FFFF00000302
(1665678443.057569) can0 1CFE9201#FFDCADFFFFFFFFFF
(1665678443.059019) can0 18FE9601#FFFFFFFFFF00FFFF
(1665678443.060211) can0 0CF0233D#0000FFFFFF0CFFFF
(1665678443.061925) can0 0CF00203#CC0000FFFF0000FF
(1665678443.062184) can0 0CF00400#007D7D000000F07D
(1665678443.063216) can0 18F0090B#1F7D20657DE67D7D
(1665678443.066175) can0 18FBD600#FFFFFFFFFFFFFFFF
(1665678443.071994) can0 0CF00203#CC0000FFFF0000FF
(1665678443.072256) can0 0CF00400#007D7D000000F07D
(1665678443.072526) can0 10FF0021#02000000FF3F4D3F
(1665678443.072842) can0 18FEDF00#7DFFFFFF7D0000FF
(1665678443.073116) can0 18F0090B#1F7D20657DE67D7D
(1665678443.073419) can0 1892FE00#FFFFFFFFFF09FFFF
(1665678443.073711) can0 18F0000F#DF7D7DFF0F7DFF7D
(1665678443.073932) can0 18F00100#FFFFFFFF00FFFFFF
(1665678443.074248) can0 18F00503#7D00007DFFFFFFFF
(1665678443.074607) can0 18FEE000#2700360027003600
(1665678443.074898) can0 18FEF100#FF0000FCFFFF00FF
(1665678443.075141) can0 18FEF200#000000000000FFFF
(1665678443.079858) can0 18F00E3D#00FB00FBFFFFFFFF
(1665678443.080336) can0 18F00F3D#00FB00FBFFFFFFFF
(1665678443.081917) can0 0CF00203#CC0000FFFF0000FF
(1665678443.082185) can0 0CF00400#007D7D000000F07D
(1665678443.082944) can0 18F0090B#1F7D20647DE67D7D
(1665678443.083863) can0 18FEF117#FFFFFFFFFFFFFFF0
(1665678443.085837) can0 18FEF121#F7FFFFCFFFFFFFFF
(1665678443.087842) can0 18FEF131#CFFFFFF700FFFF3F
(1665678443.091968) can0 0CF00203#CC0000FFFF0000FF
(1665678443.092217) can0 0CF00400#007D7D000000F07D
(1665678443.092971) can0 18F0090B#1F7D20647DE67D7D
(1665678443.094864) can0 14F00121#FFFFFFFFFFFFFFFF
(1665678443.101847) can0 0CF00300#D10000FFFF0C00FF
(1665678443.102150) can0 0CF00203#CC0000FFFF0000FF
(1665678443.102413) can0 0CF00400#007D7D000000F07D
(1665678443.102696) can0 18FD0900#0000000033B70709
(1665678443.102975) can0 18F0090B#1F7D20647DE67D7D
(1665678443.103262) can0 18FD7C00#FF80C13030FF1FFF
(1665678443.103549) can0 18FECA03#03FF00000000FFFF
(1665678443.103805) can0 18FECA11#03FF00000000FFFF
(1665678443.104134) can0 18FCDC00#FFFFFFFFFFFFFFFF
(1665678443.106387) can0 0CF00A01#00000000FFFFFFFF
(1665678443.106829) can0 10F01A01#409CFFFFFFFFFFFF
(1665678443.110466) can0 0CF0233D#0000FFFFFF0CFFFF
(1665678443.111831) can0 0C0A0021#FCFFFFFFFFFFFFFF
(1665678443.112114) can0 0CF00203#CC0000FFFF0000FF
(1665678443.112475) can0 0CF00400#007D7D000000F07D
(1665678443.112971) can0 18F0090B#1F7D20657DE67D7D
(1665678443.113791) can0 14F0010B#0F00FFFFFF0DFFFF
(1665678443.115006) can0 18FEBF0B#00007D7D7D7DFFFF
(1665678443.115832) can0 14FDC40B#1F085FFFFFFFFFFF
(1665678443.117837) can0 14FE4F0B#FF00FFFFFFFFFFFF
(1665678443.119821) can0 14FEF031#FFFFFFFFFFFFCCFF
(1665678443.121821) can0 14FF07E6#FFFFFFFFFFFFFFFF
(1665678443.122075) can0 0CF00203#CC0000FFFF0000FF
(1665678443.122390) can0 10FF0021#02000000FF3F4D3F
(1665678443.122696) can0 0CF00400#007D7D000000F07D
(1665678443.122945) can0 18F0090B#1F7D20657DE67D7D
(1665678443.123261) can0 18FEDF00#7DFFFFFF7D0000FF
(1665678443.123790) can0 14FF08E6#FFFFFFFFFFFFFFFF
(1665678443.125838) can0 18E00017#FFFFFFFFFFF0FFFF
(1665678443.127836) can0 18E00019#00FFFFFCFFFFFFFF
(1665678443.129842) can0 18E00031#FFFFFFFFFFFFFFFF
(1665678443.130091) can0 18F00E3D#00FB00FBFFFFFFFF
(1665678443.130358) can0 18F00F3D#00FB00FBFFFFFFFF
(1665678443.130708) can0 18FECA3D#43FF900C1504FFFF
(1665678443.131463) can0 18FD8C3D#00001100FFFFFFFF
(1665678443.131663) can0 18FDB23D#0000462500000000
(1665678443.131940) can0 18E0FF21#FFFFFFFFFFFFFFFF
(1665678443.132361) can0 0CF00203#CC0000FFFF0000FF
(1665678443.132611) can0 0CF00400#007D7D000000F07D
(1665678443.132844) can0 18FFA63D#00FF00000000FFFF
(1665678443.133092) can0 18F0090B#1F7D20667DE67D7D
(1665678443.136782) can0 18FBF53D#FFFFFFFF0000FFFF
(1665678443.137841) can0 18F00131#FFFFCFFFFFFFFFFF
(1665678443.141852) can0 18FECA0B#C0FF00000000FFFF
(1665678443.142105) can0 0CF00203#CC0000FFFF0000FF
(1665678443.142387) can0 0CF00400#007D7D000000F07D
(1665678443.142983) can0 18F0090B#1F7D20687DE67D7D
(1665678443.143844) can0 18FECA13#00FF0000007FFFFF
(1665678443.145846) can0 18FECA17#00FF00000000FFFF
(1665678443.147833) can0 18FECA19#00FF0000007FFFFF
(1665678443.149257) can0 14FF0097#FFFFC3E501CECE00
(1665678443.149850) can0 18FECA21#00FF0000007FFFFF
(1665678443.151842) can0 18FECA2A#00FF0000007FFFFF
(1665678443.152135) can0 0CF00300#D10000FFFF0C00FF
(1665678443.152400) can0 0CF00203#CC0000FFFF0000FF
(1665678443.152653) can0 0CF00400#007D7D000000F07D
(1665678443.153241) can0 18F0090B#1F7D20697DE67D7D
(1665678443.153913) can0 18FECA3A#00FF0000007FFFFF
(1665678443.155835) can0 18FECA45#00FF0000007FFFFF
(1665678443.156137) can0 0CF00A01#00000000FFFFFFFF
(1665678443.156616) can0 10F01A01#409CFFFFFFFFFFFF
(1665678443.156851) can0 18FECA01#43FF7F020E02FFFF
(1665678443.157140) can0 10FCFD01#FFFFFFFF00000000
(1665678443.157460) can0 18FD9401#6841FFFF00000302
(1665678443.157675) can0 1CFE9201#FFDCADFFFFFFFFFF
(1665678443.158006) can0 18FECA4A#00FF0000007FFFFF
(1665678443.158932) can0 18FE9601#FFFFFFFFFF00FFFF
(1665678443.159583) can0 18FD6501#DD01FFFFFFFFFFFF
(1665678443.159832) can0 18FECA7F#00FF0000007FFFFF
(1665678443.160083) can0 18FDA101#B303FFFFFFFF00FF
(1665678443.160419) can0 0CF0233D#0000FFFFFF0CFFFF
(1665678443.160676) can0 18FD413D#FFFFFFFFFCFCFCFC
(1665678443.161043) can0 18FDAA01#FFFFFFFFFFFFFFFF
(1665678443.161268) can0 18FDD001#FFFFFF0030FFFFFF
(1665678443.161585) can0 18FD6601#FF3DFFFFFFFFFFFF
(1665678443.161912) can0 18FECA85#00FF0000007FFFFF
(1665678443.162156) can0 0CF00203#CC0000FFFF0000FF
(1665678443.162441) can0 0CF00400#007D7D000000F07D
(1665678443.162747) can0 18FE6901#4725E024FFFF2925
(1665678443.163030) can0 18F0090B#1F7D20697DE67D7D
(1665678443.163300) can0 18FEDB01#7601760176017601
(1665678443.163762) can0 18FECAE8#00FF00000000FFFF
(1665678443.164559) can0 18FE9701#FFFFFFFFFFFFFFFF
(1665678443.165723) can0 18FECAEC#00FF0000007FFFFF
(1665678443.166501) can0 18FE9801#6027FFFFFFFFFFFF
(1665678443.166772) can0 18FE9901#FFFFFFFFFFFFFFFF
(1665678443.167148) can0 18FE9A01#3825FFFFFFFFFFFF
(1665678443.167383) can0 18FEDD01#FF0000FFFFFFFFFF
(1665678443.167651) can0 18FECAED#00FF0000007FFFFF
(1665678443.168001) can0 18FFAA01#0000EC05F27C6564
(1665678443.168471) can0 18FFAB01#080006007DFA6810
(1665678443.168873) can0 18FFAC01#000000190B00F0FF
(1665678443.169315) can0 18FFAD01#6900FFFF0000FFFF
(1665678443.169586) can0 18FFAE01#00FF00000000FFFF
(1665678443.169919) can0 18FDD301#FFFFFFFFFFFFFFFF
(1665678443.170454) can0 18FE5600#F93CFFFF1F1FFFFF
(1665678443.170717) can0 18FEA400#FFFF6025FA7CFFFF
(1665678443.170984) can0 18FFA53D#FFFF511B43254325
(1665678443.171292) can0 18FEEE00#3E3DD424FFFF40FF
(1665678443.171600) can0 18FBD600#FFFFFFFFFFFFFFFF
(1665678443.171892) can0 18FEE419#FFFFFCFFFFFFFFFF
(1665678443.172151) can0 0CF00203#CC0000FFFF0000FF
(1665678443.172521) can0 0CF00400#007D7D000000F07D
(1665678443.172755) can0 10FF0021#02000000FF3F4D3F
(1665678443.173065) can0 18FEDF00#7DFFFFFF7D0000FF
(1665678443.173313) can0 18F0090B#1F7D20697DE67D7D
(1665678443.173665) can0 1892FE00#FFFFFFFFFF09FFFF
(1665678443.173921) can0 18F0000F#DF7D7DFF0F7DFF7D
(1665678443.174229) can0 18F00100#FFFFFFFF00FFFFFF
(1665678443.174526) can0 18F00503#7D00007DFFFFFFFF
(1665678443.174866) can0 18FEE000#2700360027003600
(1665678443.175138) can0 18FEF100#FF0000FCFFFF00FF
(1665678443.175496) can0 18FEF200#000000000000FFFF
(1665678443.179740) can0 18F00E3D#00FB00FBFFFFFFFF
(1665678443.180211) can0 18F00F3D#00FB00FBFFFFFFFF
(1665678443.180456) can0 18FD3E00#FFFFFF4325FFFFFF
(1665678443.181810) can0 0CF00203#CC0000FFFF0000FF
(1665678443.182064) can0 0CF00400#007D7D000000F07D
(1665678443.182806) can0 18F0090B#1F7D20697DE67D7D
(1665678443.183723) can0 18FEF117#FFFFFFFFFFFFFFF0
(1665678443.185689) can0 18FEF121#F7FFFFCFFFFFFFFF
(1665678443.187679) can0 18FEF131#CFFFFFF700FFFF3F
(1665678443.190333) can0 18FD9B3D#FFFFFFFFFFFFFFFF
(1665678443.191680) can0 18FF0025#F0FF640A27003600
(1665678443.191944) can0 0CF00203#CC0000FFFF0000FF
(1665678443.192270) can0 0CF00400#007D7D000000F07D
(1665678443.192831) can0 18F0090B#1F7D20687DE67D7D
(1665678443.194684) can0 14F00121#FFFFFFFFFFFFFFFF
(1665678443.195700) can0 1CFEC347#FFFFFFFFFFFFFFFF
(1665678443.201683) can0 0CF00300#D10000FFFF0C00FF
(1665678443.202116) can0 0CF00203#CC0000FFFF0000FF
(1665678443.202386) can0 0CF00400#007D7D000000F07D
(1665678443.203170) can0 18F0090B#1F7D20687DE67D7D
(1665678443.206289) can0 0CF00A01#00000000FFFFFFFF
(1665678443.206794) can0 10F01A01#409CFFFFFFFFFFFF
(1665678443.210458) can0 0CF0233D#0000FFFFFF0CFFFF
(1665678443.211817) can0 0C0A0021#FCFFFFFFFFFFFFFF
(1665678443.212063) can0 0CF00203#CC0000FFFF0000FF
(1665678443.212398) can0 18FF0097#464D2039342E3120
(1665678443.212653) can0 0CF00400#007D7D000000F07D
(1665678443.212939) can0 18F0090B#1F7D20687DE67D7D
(1665678443.213830) can0 14F0010B#0F00FFFFFF0DFFFF
(1665678443.215018) can0 18FEBF0B#00007D7D7D7DFFFF
(1665678443.215842) can0 14FDC40B#1F085FFFFFFFFFFF
(1665678443.217857) can0 14FE4F0B#FF00FFFFFFFFFFFF
(1665678443.219827) can0 14FEF031#FFFFFFFFFFFFCCFF
(1665678443.220682) can0 18FD3C3D#0000FFFFFFCCFFFF
(1665678443.221838) can0 14FF07E6#FFFFFFFFFFFFFFFF
(1665678443.222103) can0 0CF00203#CC0000FFFF0000FF
(1665678443.222391) can0 0CF00400#007D7D000000F07D
(1665678443.222667) can0 10FF0021#02000000FF3F4D3F
(1665678443.222947) can0 18FEDF00#7DFFFFFF7D0000FF
(1665678443.223203) can0 18F0090B#1F7D20687DE67D7D
(1665678443.227222) can0 14FF0097#FFFFC3E501CECE00
(1665678443.229902) can0 18F00E3D#00FB00FBFFFFFFFF
(1665678443.230150) can0 18F00F3D#00FB00FBFFFFFFFF
(1665678443.232018) can0 0CF00203#CC0000FFFF0000FF
(1665678443.232280) can0 0CF00400#007D7D000000F07D
(1665678443.232972) can0 18F0090B#1F7D20687DE67D7D
(1665678443.237839) can0 18F00131#FFFFCFFFFFFFFFFF
(1665678443.240450) can0 18FFA33D#0000FFFF8010FFFF
(1665678443.241947) can0 0CF00203#CC0000FFFF0000FF
(1665678443.242217) can0 0CF00400#007D7D000000F07D
(1665678443.242999) can0 18F0090B#1F7D20687DE67D7D
(1665678443.250678) can0 18FFA43D#D606D606FFFFFCFF
(1665678443.251835) can0 0CF00300#D10000FFFF0C00FF
(1665678443.252142) can0 0CF00203#CC0000FFFF0000FF
(1665678443.252417) can0 0CF00400#007D7D000000F07D
(1665678443.253262) can0 18F0090B#1F7D20687DE67D7D
(1665678443.256169) can0 0CF00A01#00000000FFFFFFFF
(1665678443.256592) can0 10F01A01#409CFFFFFFFFFFFF
(1665678443.257039) can0 10FCFD01#FFFFFFFF00000000
(1665678443.257379) can0 18FD9401#6841FFFF00000302
(1665678443.257621) can0 1CFE9201#FFDCADFFFFFFFFFF
(1665678443.259003) can0 18FE9601#FFFFFFFFFF00FFFF
(1665678443.260219) can0 0CF0233D#0000FFFFFF0CFFFF
(1665678443.260479) can0 18FFA23D#0000F626E803340F
(1665678443.261959) can0 0CF00203#CC0000FFFF0000FF
(1665678443.262256) can0 0CF00400#007D7D000000F07D
(1665678443.263242) can0 18F0090B#1F7D20697DE67D7D
(1665678443.266163) can0 18FBD600#FFFFFFFFFFFFFFFF
(1665678443.270462) can0 18FFA03D#1A0D1A00190000FF
(1665678443.272015) can0 0CF00203#CC0000FFFF0000FF
(1665678443.272269) can0 0CF00400#007D7D000000F07D
(1665678443.272559) can0 10FF0021#02000000FF3F4D3F
(1665678443.272841) can0 18FEDF00#7DFFFFFF7D0000FF
(1665678443.273122) can0 18F0090B#1F7D20697DE67D7D
(1665678443.273422) can0 1892FE00#FFFFFFFFFF09FFFF
(1665678443.273723) can0 18F0000F#DF7D7DFF0F7DFF7D
(1665678443.273968) can0 18F00100#FFFFFFFF00FFFFFF
(1665678443.274254) can0 18F00503#7D00007DFFFFFFFF
(1665678443.274538) can0 18FEE000#2700360027003600
(1665678443.274919) can0 18FEF100#FF0000FCFFFF00FF
(1665678443.275126) can0 18FEF200#000000000000FFFF
(1665678443.279868) can0 18F00E3D#00FB00FBFFFFFFFF
(1665678443.280330) can0 18F00F3D#00FB00FBFFFFFFFF
(1665678443.280559) can0 18FD203D#46254625FFFFFFFF
(1665678443.280868) can0 18FFA13D#8B028B021AFFFF30
