(1665678334.118878) can0 14FF07E6#FFFFFFFFFFFFFFFF
(1665678334.119145) can0 18F0090B#1F7D206C7DE67D7D
(1665678334.120897) can0 14FF08E6#FFFFFFFFFFFFFFFF
(1665678334.122784) can0 10FF0021#02000000FF3F4D3F
(1665678334.122979) can0 18E00017#FFFFFFFFFFF0FFFF
(1665678334.124561) can0 0CF00203#CC0000FFFF0000FF
(1665678334.124828) can0 0CF00400#007D7D000000F07D
(1665678334.125025) can0 18E00019#00FFFFFCFFFFFFFF
(1665678334.126760) can0 18F00E3D#00FB00FBFFFFFFFF
(1665678334.127083) can0 18E00031#FFFFFFFFFFFFFFFF
(1665678334.127377) can0 18F00F3D#00FB00FBFFFFFFFF
(1665678334.127575) can0 18FECA3D#43FF900C1504FFFF
(1665678334.128870) can0 18FD8C3D#00001100FFFFFFFF
(1665678334.129192) can0 18E0FF21#FFFFFFFFFFFFFFFF
(1665678334.129436) can0 18FDB23D#0000462500000000
(1665678334.129584) can0 18F0090B#1F7D206C7DE67D7D
(1665678334.132071) can0 18FFA63D#00FF00000000FFFF
(1665678334.132632) can0 18FBF53D#FFFFFFFF0000FFFF
(1665678334.134432) can0 0CF00203#CC0000FFFF0000FF
(1665678334.134676) can0 0CF00400#007D7D000000F07D
(1665678334.134955) can0 14FF0097#FFFFC3E501CECE00
(1665678334.135112) can0 18F00131#FFFFCFFFFFFFFFFF
(1665678334.138779) can0 18FECA0B#C0FF00000000FFFF
(1665678334.139375) can0 18F0090B#1F7D206C7DE67D7D
(1665678334.140844) can0 18FECA13#00FF0000007FFFFF
(1665678334.142841) can0 18FECA17#00FF00000000FFFF
(1665678334.144419) can0 0CF00300#D10000FFFF0C00FF
(1665678334.144607) can0 0CF00203#CC0000FFFF0000FF
(1665678334.144901) can0 18FECA19#00FF0000007FFFFF
(1665678334.145297) can0 0CF00400#007D7D000000F07D
(1665678334.146786) can0 18FECA21#00FF0000007FFFFF
(1665678334.148906) can0 18FECA2A#00FF0000007FFFFF
(1665678334.149077) can0 18F0090B#1F7D206C7DE67D7D
(1665678334.150752) can0 18FECA3A#00FF0000007FFFFF
(1665678334.151936) can0 0CF00A01#00000000FFFFFFFF
(1665678334.152571) can0 10F01A01#409CFFFFFFFFFFFF
(1665678334.152705) can0 18FECA01#43FF7F020E02FFFF
(1665678334.152890) can0 10FCFD01#FFFFFFFF00000000
(1665678334.153334) can0 18FECA45#00FF0000007FFFFF
(1665678334.153499) can0 18FD9401#6841FFFF00000302
(1665678334.153773) can0 1CFE9201#FFDCADFFFFFFFFFF
(1665678334.154360) can0 0CF00203#CC0000FFFF0000FF
(1665678334.154604) can0 0CF00400#007D7D000000F07D
(1665678334.154775) can0 18FECA4A#00FF0000007FFFFF
(1665678334.156484) can0 18FE9601#FFFFFFFFFF00FFFF
(1665678334.156726) can0 18FECA7F#00FF0000007FFFFF
(1665678334.157135) can0 0CF0233D#0000FFFFFF0CFFFF
(1665678334.157312) can0 18FD413D#FFFFFFFFFCFCFCFC
(1665678334.157642) can0 18FD6501#DD01FFFFFFFFFFFF
(1665678334.158126) can0 18FDA101#B303FFFFFFFF00FF
(1665678334.158567) can0 18FDAA01#FFFFFFFFFFFFFFFF
(1665678334.158833) can0 18FECA85#00FF0000007FFFFF
(1665678334.159132) can0 18FDD001#FFFFFF0030FFFFFF
(1665678334.159413) can0 18F0090B#1F7D206B7DE67D7D
(1665678334.159675) can0 18FEDB01#7601760176017601
(1665678334.160286) can0 18FD6601#FF3DFFFFFFFFFFFF
(1665678334.160716) can0 18FECAE8#00FF00000000FFFF
(1665678334.161587) can0 18FE6901#4725E424FFFF2525
(1665678334.161850) can0 18FE9701#FFFFFFFFFFFFFFFF
(1665678334.162172) can0 18FE9801#6027FFFFFFFFFFFF
(1665678334.162442) can0 18FE9901#FFFFFFFFFFFFFFFF
(1665678334.162772) can0 18FECAEC#00FF0000007FFFFF
(1665678334.163017) can0 18FE9A01#3825FFFFFFFFFFFF
(1665678334.163343) can0 18FEDD01#FF0000FFFFFFFFFF
(1665678334.163610) can0 18FFAA01#0000EC05F27C6564
(1665678334.163989) can0 18FFAB01#1C1706007DFA6810
(1665678334.164414) can0 0CF00203#CC0000FFFF0000FF
(1665678334.164686) can0 0CF00400#007D7D000000F07D
(1665678334.164993) can0 18FECAED#00FF0000007FFFFF
(1665678334.165273) can0 18FEDF00#7DFFFFFF7D0000FF
(1665678334.165602) can0 1892FE00#FFFFFFFFFF09FFFF
(1665678334.165840) can0 18F0000F#DF7D7DFF0F7DFF7D
(1665678334.166178) can0 18F00100#FFFFFFFF00FFFFFF
(1665678334.166484) can0 18F00503#7D00007DFFFFFFFF
(1665678334.166804) can0 18FEE000#2700360027003600
(1665678334.167116) can0 18FEF100#FF0000FCFFFF00FF
(1665678334.167416) can0 18FEF200#000000000000FFFF
(1665678334.167697) can0 18FDD301#FFFFFFFFFFFFFFFF
(1665678334.167900) can0 18FE5600#F93CFFFF1F1FFFFF
(1665678334.168291) can0 18FEA400#FFFF5525FA7CFFFF
(1665678334.168551) can0 18FEEE00#3E3DD424FFFF40FF
(1665678334.168845) can0 18FEE419#FFFFFCFFFFFFFFFF
(1665678334.169067) can0 18FFA53D#FFFF501B43254325
(1665678334.169332) can0 18F0090B#1F7D206B7DE67D7D
(1665678334.169729) can0 18FBD600#FFFFFFFFFFFFFFFF
(1665678334.170028) can0 18FFAC01#000000190B00F0FF
(1665678334.170346) can0 18FFAD01#6900FFFF0000FFFF
(1665678334.170522) can0 18FFAE01#00FF00000000FFFF
(1665678334.172653) can0 10FF0021#02000000FF3F4D3F
(1665678334.174320) can0 0CF00203#CC0000FFFF0000FF
(1665678334.174584) can0 0CF00400#007D7D000000F07D
(1665678334.176691) can0 18F00E3D#00FB00FBFFFFFFFF
(1665678334.177152) can0 18F00F3D#00FB00FBFFFFFFFF
(1665678334.177380) can0 18FD3E00#FFFFFF4325FFFFFF
(1665678334.178952) can0 18F0090B#1F7D20697DE67D7D
(1665678334.180773) can0 18FEF117#FFFFFFFFFFFFFFF0
(1665678334.182766) can0 18FEF121#F7FFFFCFFFFFFFFF
(1665678334.184314) can0 0CF00203#CC0000FFFF0000FF
(1665678334.184607) can0 0CF00400#007D7D000000F07D
(1665678334.184848) can0 18FEF131#CFFFFFF700FFFF3F
(1665678334.187280) can0 18FD9B3D#FFFFFFFFFFFFFFFF
(1665678334.188755) can0 18FF0025#F0FF640A27003600
(1665678334.188987) can0 18F0090B#1F7D20697DE67D7D
(1665678334.191745) can0 14F00121#FFFFFFFFFFFFFFFF
(1665678334.192784) can0 1CFEC347#FFFFFFFFFFFFFFFF
(1665678334.194217) can0 0CF00300#D10000FFFF0C00FF
(1665678334.194422) can0 0CF00203#CC0000FFFF0000FF
(1665678334.194795) can0 0CF00400#007D7D000000F07D
(1665678334.198958) can0 18F0090B#1F7D20687DE67D7D
(1665678334.201478) can0 0CF00A01#00000000FFFFFFFF
(1665678334.201900) can0 10F01A01#409CFFFFFFFFFFFF
(1665678334.204307) can0 0CF00203#CC0000FFFF0000FF
(1665678334.204596) can0 0CF00400#007D7D000000F07D
(1665678334.207266) can0 0CF0233D#0000FFFFFF0CFFFF
(1665678334.208822) can0 0C0A0021#FCFFFFFFFFFFFFFF
(1665678334.209068) can0 18F0090B#1F7D20687DE67D7D
(1665678334.210845) can0 14F0010B#0F00FFFFFF0DFFFF
(1665678334.211653) can0 18FEBF0B#00007D7D7D7DFFFF
(1665678334.212844) can0 14FDC40B#1F085FFFFFFFFFFF
(1665678334.214414) can0 0CF00203#CC0000FFFF0000FF
(1665678334.214656) can0 0CF00400#007D7D000000F07D
(1665678334.214946) can0 14FE4F0B#FF00FFFFFFFFFFFF
(1665678334.215258) can0 18FEDF00#7DFFFFFF7D0000FF
(1665678334.216814) can0 14FEF031#FFFFFFFFFFFFCCFF
(1665678334.217550) can0 18FD3C3D#0000FFFFFFCCFFFF
(1665678334.218809) can0 14FF07E6#FFFFFFFFFFFFFFFF
(1665678334.219039) can0 18F0090B#1F7D20687DE67D7D
(1665678334.222526) can0 10FF0021#02000000FF3F4D3F
(1665678334.223661) can0 14FF0097#FFFFC3E501CECE00
(1665678334.224415) can0 0CF00203#CC0000FFFF0000FF
(1665678334.224642) can0 0CF00400#007D7D000000F07D
(1665678334.226743) can0 18F00E3D#00FB00FBFFFFFFFF
(1665678334.227024) can0 18F00F3D#00FB00FBFFFFFFFF
(1665678334.229021) can0 18F0090B#1F7D20697DE67D7D
(1665678334.234344) can0 0CF00203#CC0000FFFF0000FF
(1665678334.234603) can0 0CF00400#007D7D000000F07D
(1665678334.234898) can0 18F00131#FFFFCFFFFFFFFFFF
(1665678334.237307) can0 18FFA33D#0000FFFF8010FFFF
(1665678334.239302) can0 18F0090B#1F7D20697DE67D7D
(1665678334.244288) can0 0CF00300#D10000FFFF0C00FF
(1665678334.244566) can0 0CF00203#CC0000FFFF0000FF
(1665678334.244924) can0 0CF00400#007D7D000000F07D
(1665678334.247646) can0 18FFA43D#D606D606FFFFFCFF
(1665678334.249119) can0 18F0090B#1F7D20697DE67D7D
(1665678334.252141) can0 0CF00A01#00000000FFFFFFFF
(1665678334.252485) can0 10F01A01#409CFFFFFFFFFFFF
(1665678334.252963) can0 10FCFD01#FFFFFFFF00000000
(1665678334.253297) can0 18FD9401#6841FFFF00000302
(1665678334.253776) can0 1CFE9201#FFDCADFFFFFFFFFF
(1665678334.254515) can0 0CF00203#CC0000FFFF0000FF
(1665678334.254738) can0 0CF00400#007D7D000000F07D
(1665678334.256595) can0 18FE9601#FFFFFFFFFF00FFFF
(1665678334.257294) can0 0CF0233D#0000FFFFFF0CFFFF
(1665678334.257506) can0 18FFA23D#0000F626E803340F
(1665678334.259084) can0 18F0090B#1F7D20687DE67D7D
(1665678334.261389) can0 18FBD600#FFFFFFFFFFFFFFFF
(1665678334.264495) can0 0CF00203#CC0000FFFF0000FF
(1665678334.264774) can0 0CF00400#007D7D000000F07D
(1665678334.265098) can0 18FEDF00#7DFFFFFF7D0000FF
(1665678334.265377) can0 1892FE00#FFFFFFFFFF09FFFF
(1665678334.265675) can0 18F0000F#DF7D7DFF0F7DFF7D
(1665678334.265951) can0 18F00100#FFFFFFFF00FFFFFF
(1665678334.266182) can0 18F00503#7D00007DFFFFFFFF
(1665678334.266375) can0 18FEE000#2700360027003600
(1665678334.266666) can0 18FEF100#FF0000FCFFFF00FF
(1665678334.267010) can0 18FEF200#000000000000FFFF
(1665678334.267462) can0 18FFA03D#1A0D1A00190000FF
(1665678334.269039) can0 18F0090B#1F7D20687DE67D7D
(1665678334.272540) can0 10FF0021#02000000FF3F4D3F
(1665678334.274384) can0 0CF00203#CC0000FFFF0000FF
(1665678334.274636) can0 0CF00400#007D7D000000F07D
(1665678334.276747) can0 18F00E3D#00FB00FBFFFFFFFF
(1665678334.277201) can0 18F00F3D#00FB00FBFFFFFFFF
(1665678334.277441) can0 18FD203D#46254625FFFFFFFF
(1665678334.277723) can0 18FFA13D#8B028B021AFFFF30
(1665678334.279024) can0 18F0090B#1F7D20667DE67D7D
(1665678334.280845) can0 18FEF117#FFFFFFFFFFFFFFF0
(1665678334.282871) can0 18FEF121#F7FFFFCFFFFFFFFF
(1665678334.284389) can0 0CF00203#CC0000FFFF0000FF
(1665678334.284686) can0 0CF00400#007D7D000000F07D
(1665678334.284927) can0 18FEF131#CFFFFFF700FFFF3F
(1665678334.289044) can0 18F0090B#1F7D20667DE67D7D
(1665678334.291918) can0 14F00121#FFFFFFFFFFFFFFFF
(1665678334.294367) can0 0CF00300#D10000FFFF0C00FF
(1665678334.294529) can0 18FEE925#0000000058950400
(1665678334.294854) can0 0CF00203#CC0000FFFF0000FF
(1665678334.295183) can0 0CF00400#007D7D000000F07D
(1665678334.299123) can0 18F0090B#1F7D20667DE67D7D
(1665678334.301854) can0 0CF00A01#00000000FFFFFFFF
(1665678334.302238) can0 10F01A01#409CFFFFFFFFFFFF
(1665678334.304470) can0 0CF00203#CC0000FFFF0000FF
(1665678334.304720) can0 0CF00400#007D7D000000F07D
(1665678334.307396) can0 0CF0233D#0000FFFFFF0CFFFF
(1665678334.308888) can0 0C0A0021#FCFFFFFFFFFFFFFF
(1665678334.309096) can0 18F0090B#1F7D20667DE67D7D
(1665678334.310880) can0 14F0010B#0F00FFFFFF0DFFFF
(1665678334.311680) can0 18FEBF0B#00007D7D7D7DFFFF
(1665678334.312908) can0 14FDC40B#1F085FFFFFFFFFFF
(1665678334.314498) can0 0CF00203#CC0000FFFF0000FF
(1665678334.314725) can0 0CF00400#007D7D000000F07D
(1665678334.314976) can0 14FE4F0B#FF00FFFFFFFFFFFF
(1665678334.315385) can0 18FEDF00#7DFFFFFF7D0000FF
(1665678334.316892) can0 14FEF031#FFFFFFFFFFFFCCFF
(1665678334.318908) can0 14FF07E6#FFFFFFFFFFFFFFFF
(1665678334.319058) can0 18F0090B#1F7D20687DE67D7D
(1665678334.322600) can0 10FF0021#02000000FF3F4D3F
(1665678334.324475) can0 0CF00203#CC0000FFFF0000FF
(1665678334.324691) can0 0CF00400#007D7D000000F07D
(1665678334.326826) can0 18F00E3D#00FB00FBFFFFFFFF
(1665678334.327055) can0 14FF0097#FFFFC3E501CECE00
(1665678334.327292) can0 18F00F3D#00FB00FBFFFFFFFF
(1665678334.329079) can0 18F0090B#1F7D20687DE67D7D
(1665678334.334504) can0 0CF00203#CC0000FFFF0000FF
(1665678334.334696) can0 0CF00400#007D7D000000F07D
(1665678334.334937) can0 18F00131#FFFFCFFFFFFFFFFF
(1665678334.339397) can0 18F0090B#1F7D20687DE67D7D
(1665678334.344366) can0 0CF00300#D10000FFFF0C00FF
(1665678334.344632) can0 0CF00203#CC0000FFFF0000FF
(1665678334.344914) can0 0CF00400#007D7D000000F07D
(1665678334.349042) can0 18F0090B#1F7D20687DE67D7D
(1665678334.352387) can0 0CF00A01#00000000FFFFFFFF
(1665678334.352554) can0 10F01A01#409CFFFFFFFFFFFF
(1665678334.352831) can0 10FCFD01#FFFFFFFF00000000
(1665678334.353050) can0 18FD9401#6841FFFF00000302
(1665678334.353480) can0 1CFE9201#FFE0ADFFFFFFFFFF
(1665678334.354669) can0 0CF00203#CC0000FFFF0000FF
(1665678334.354804) can0 0CF00400#007D7D000000F07D
(1665678334.356314) can0 18FE9601#FFFFFFFFFF00FFFF
(1665678334.357326) can0 0CF0233D#0000FFFFFF0CFFFF
(1665678334.359564) can0 18F0090B#1F7D20687DE67D7D
(1665678334.361915) can0 18FBD600#FFFFFFFFFFFFFFFF
(1665678334.364672) can0 0CF00203#CC0000FFFF0000FF
(1665678334.364845) can0 0CF00400#007D7D000000F07D
(1665678334.365237) can0 18FEDF00#7DFFFFFF7D0000FF
(1665678334.365459) can0 1892FE00#FFFFFFFFFF09FFFF
(1665678334.365748) can0 18F0000F#DF7D7DFF0F7DFF7D
(1665678334.366042) can0 18F00100#FFFFFFFF00FFFFFF
(1665678334.366367) can0 18F00503#7D00007DFFFFFFFF
(1665678334.366618) can0 18FEE000#2700360027003600
(1665678334.366855) can0 18FEF100#FF0000FCFFFF00FF
(1665678334.367150) can0 18FEF200#000000000000FFFF
(1665678334.369005) can0 18F0090B#1F7D20687DE67D7D
(1665678334.372692) can0 10FF0021#02000000FF3F4D3F
(1665678334.374624) can0 0CF00203#CC0000FFFF0000FF
(1665678334.374803) can0 0CF00400#007D7D000000F07D
(1665678334.377128) can0 18F00E3D#00FB00FBFFFFFFFF
(1665678334.377320) can0 18F00F3D#00FB00FBFFFFFFFF
(1665678334.379526) can0 18F0090B#1F7D20687DE67D7D
(1665678334.381392) can0 18FEF117#FFFFFFFFFFFFFFF0
(1665678334.382875) can0 18FEF121#F7FFFFCFFFFFFFFF
(1665678334.384610) can0 0CF00203#CC0000FFFF0000FF
(1665678334.384806) can0 0CF00400#007D7D000000F07D
(1665678334.385059) can0 18FEF131#CFFFFFF700FFFF3F
(1665678334.389529) can0 18F0090B#1F7D20687DE67D7D
(1665678334.392350) can0 14F00121#FFFFFFFFFFFFFFFF
(1665678334.394412) can0 0CF00300#D10000FFFF0C00FF
(1665678334.394714) can0 0CF00203#CC0000FFFF0000FF
(1665678334.394990) can0 0CF00400#007D7D000000F07D
(1665678334.399133) can0 18F0090B#1F7D20687DE67D7D
(1665678334.401814) can0 0CF00A01#00000000FFFFFFFF
(1665678334.402068) can0 10F01A01#409CFFFFFFFFFFFF
(1665678334.404603) can0 0CF00203#CC0000FFFF0000FF
(1665678334.404792) can0 0CF00400#007D7D000000F07D
(1665678334.407484) can0 0CF0233D#0000FFFFFF0CFFFF
(1665678334.409019) can0 0C0A0021#FCFFFFFFFFFFFFFF
(1665678334.409193) can0 18F0090B#1F7D20687DE67D7D
(1665678334.411407) can0 14F0010B#0F00FFFFFF0DFFFF
(1665678334.411606) can0 18FEBF0B#00007D7D7D7DFFFF
(1665678334.413359) can0 14FDC40B#1F085FFFFFFFFFFF
(1665678334.414986) can0 0CF00203#CC0000FFFF0000FF
(1665678334.415008) can0 0CF00400#007D7D000000F07D
(1665678334.415011) can0 14FE4F0B#FF00FFFFFFFFFFFF
(1665678334.415360) can0 18FEDF00#7DFFFFFF7D0000FF
(1665678334.416848) can0 14FEF031#FFFFFFFFFFFFCCFF
(1665678334.418966) can0 14FF07E6#FFFFFFFFFFFFFFFF
(1665678334.419194) can0 18F0090B#1F7D20687DE67D7D
(1665678334.423115) can0 10FF0021#02000000FF3F4D3F
(1665678334.424472) can0 18FDB300#FFFF4625FFFFFFFF
(1665678334.424736) can0 0CF00203#CC0000FFFF0000FF
(1665678334.424987) can0 0CF00400#007D7D000000F07D
(1665678334.425345) can0 18FDB43D#46254625FFFFFFFF
(1665678334.425761) can0 18FEF600#FF004130FFFFFFFF
(1665678334.426001) can0 18FEFC00#FFC6FFFFFFFFFFFF
(1665678334.426957) can0 18F00E3D#00FB00FBFFFFFFFF
(1665678334.427125) can0 18F00F3D#00FB00FBFFFFFFFF
(1665678334.428165) can0 14FF0097#FFFFC3E501CECE00
(1665678334.429278) can0 18F0090B#1F7D20667DE67D7D
(1665678334.434627) can0 0CF00203#CC0000FFFF0000FF
(1665678334.434816) can0 0CF00400#007D7D000000F07D
(1665678334.435095) can0 18F00131#FFFFCFFFFFFFFFFF
(1665678334.439309) can0 18F0090B#1F7D20667DE67D7D
(1665678334.444411) can0 0CF00300#D10000FFFF0C00FF
(1665678334.444671) can0 0CF00203#CC0000FFFF0000FF
(1665678334.444959) can0 0CF00400#007D7D000000F07D
(1665678334.449509) can0 18F0090B#1F7D20667DE67D7D
(1665678334.452364) can0 0CF00A01#00000000FFFFFFFF
(1665678334.452386) can0 10F01A01#409CFFFFFFFFFFFF
(1665678334.452732) can0 10FCFD01#FFFFFFFF00000000
(1665678334.453011) can0 18FD9401#6841FFFF00000302
(1665678334.453413) can0 1CFE9201#FFDCADFFFFFFFFFF
(1665678334.455001) can0 0CF00203#CC0000FFFF0000FF
(1665678334.455023) can0 0CF00400#007D7D000000F07D
(1665678334.456354) can0 18FE9601#FFFFFFFFFF00FFFF
(1665678334.457187) can0 0CF0233D#0000FFFFFF0CFFFF
(1665678334.459522) can0 18F0090B#1F7D20667DE67D7D
(1665678334.461603) can0 18FBD600#FFFFFFFFFFFFFFFF
(1665678334.464646) can0 0CF00203#CC0000FFFF0000FF
(1665678334.464905) can0 0CF00400#007D7D000000F07D
(1665678334.465216) can0 18FEDF00#7DFFFFFF7D0000FF
(1665678334.465526) can0 1892FE00#FFFFFFFFFF09FFFF
(1665678334.465875) can0 18F0000F#DF7D7DFF0F7DFF7D
(1665678334.466147) can0 18F00100#FFFFFFFF00FFFFFF
(1665678334.466402) can0 18F00503#7D00007DFFFFFFFF
(1665678334.466422) can0 18FEE000#2700360027003600
(1665678334.466810) can0 18FEF100#FF0000FCFFFF00FF
(1665678334.467099) can0 18FEF200#000000000000FFFF
(1665678334.467397) can0 18FEEF00#00FFFF00FFFFFFFA
(1665678334.469262) can0 18F0090B#1F7D20667DE67D7D
(1665678334.472796) can0 10FF0021#02000000FF3F4D3F
(1665678334.474940) can0 0CF00203#CC0000FFFF0000FF
(1665678334.474961) can0 0CF00400#007D7D000000F07D
(1665678334.476968) can0 18F00E3D#00FB00FBFFFFFFFF
(1665678334.477338) can0 18F00F3D#00FB00FBFFFFFFFF
(1665678334.479518) can0 18F0090B#1F7D20667DE67D7D
(1665678334.481070) can0 18FEF117#FFFFFFFFFFFFFFF0
(1665678334.483396) can0 18FEF121#F7FFFFCFFFFFFFFF
(1665678334.484594) can0 0CF00203#CC0000FFFF0000FF
(1665678334.484800) can0 0CF00400#007D7D000000F07D
(1665678334.485047) can0 18FEF131#CFFFFFF700FFFF3F
(1665678334.489277) can0 18F0090B#1F7D20687DE67D7D
(1665678334.492380) can0 14F00121#FFFFFFFFFFFFFFFF
(1665678334.494512) can0 0CF00300#D10000FFFF0C00FF
(1665678334.494681) can0 0CF00203#CC0000FFFF0000FF
(1665678334.495005) can0 0CF00400#007D7D000000F07D
(1665678334.499210) can0 18F0090B#1F7D20697DE67D7D
(1665678334.502355) can0 0CF00A01#00000000FFFFFFFF
(1665678334.502377) can0 10F01A01#409CFFFFFFFFFFFF
(1665678334.504674) can0 0CF00203#CC0000FFFF0000FF
(1665678334.504829) can0 0CF00400#007D7D000000F07D
(1665678334.507564) can0 0CF0233D#0000FFFFFF0CFFFF
(1665678334.508854) can0 0C0A0021#FCFFFFFFFFFFFFFF
(1665678334.509086) can0 18F0090B#1F7D20697DE67D7D
(1665678334.511002) can0 14F0010B#0F00FFFFFF0DFFFF
(1665678334.512122) can0 18FEBF0B#00007D7D7D7DFFFF
(1665678334.513253) can0 14FDC40B#1F085FFFFFFFFFFF
(1665678334.514587) can0 0CF00203#CC0000FFFF0000FF
(1665678334.514789) can0 0CF00400#007D7D000000F07D
(1665678334.515153) can0 14FE4F0B#FF00FFFFFFFFFFFF
(1665678334.515332) can0 18FEDF00#7DFFFFFF7D0000FF
(1665678334.517058) can0 14FEF031#FFFFFFFFFFFFCCFF
(1665678334.519411) can0 14FF07E6#FFFFFFFFFFFFFFFF
(1665678334.519433) can0 18EAFFFB#C3FE00
(1665678334.519436) can0 18F0090B#1F7D20697DE67D7D
(1665678334.522870) can0 10FF0021#02000000FF3F4D3F
(1665678334.524680) can0 0CF00203#CC0000FFFF0000FF
(1665678334.524837) can0 0CF00400#007D7D000000F07D
(1665678334.527157) can0 18F00E3D#00FB00FBFFFFFFFF
(1665678334.527174) can0 18F00F3D#00FB00FBFFFFFFFF
(1665678334.529064) can0 14FF0097#FFFFC3E501CECE00
(1665678334.529239) can0 18F0090B#1F7D206B7DE67D7D
(1665678334.534618) can0 0CF00203#CC0000FFFF0000FF
(1665678334.534858) can0 0CF00400#007D7D000000F07D
(1665678334.535076) can0 18F00131#FFFFCFFFFFFFFFFF
(1665678334.539400) can0 18F0090B#1F7D206B7DE67D7D
(1665678334.544552) can0 0CF00300#D10000FFFF0C00FF
(1665678334.544728) can0 0CF00203#CC0000FFFF0000FF
(1665678334.544982) can0 0CF00400#007D7D000000F07D
(1665678334.549450) can0 18F0090B#1F7D206B7DE67D7D
(1665678334.552362) can0 0CF00A01#00000000FFFFFFFF
(1665678334.552588) can0 10F01A01#409CFFFFFFFFFFFF
(1665678334.553054) can0 10FCFD01#FFFFFFFF00000000
(1665678334.553494) can0 18FD9401#6841FFFF00000302
(1665678334.553904) can0 1CFE9201#FFDCADFFFFFFFFFF
(1665678334.554589) can0 0CF00203#CC0000FFFF0000FF
(1665678334.554737) can0 0CF00400#007D7D000000F07D
(1665678334.556619) can0 18FE9601#FFFFFFFFFF00FFFF
(1665678334.557361) can0 0CF0233D#0000FFFFFF0CFFFF
(1665678334.559523) can0 18F0090B#1F7D206B7DE67D7D
(1665678334.561617) can0 18FBD600#FFFFFFFFFFFFFFFF
(1665678334.564692) can0 0CF00203#CC0000FFFF0000FF
(1665678334.564889) can0 0CF00400#007D7D000000F07D
(1665678334.565168) can0 18FEDF00#7DFFFFFF7D0000FF
(1665678334.565477) can0 1892FE00#FFFFFFFFFF09FFFF
(1665678334.565665) can0 18F0000F#DF7D7DFF0F7DFF7D
(1665678334.565958) can0 18F00100#FFFFFFFF00FFFFFF
(1665678334.566299) can0 18F00503#7D00007DFFFFFFFF
(1665678334.566615) can0 18FEE000#2700360027003600
(1665678334.566846) can0 18FEF100#FF0000FCFFFF00FF
(1665678334.567215) can0 18FEF200#000000000000FFFF
(1665678334.569198) can0 18F0090B#1F7D206B7DE67D7D
(1665678334.572783) can0 10FF0021#02000000FF3F4D3F
(1665678334.575004) can0 0CF00203#CC0000FFFF0000FF
(1665678334.575027) can0 0CF00400#007D7D000000F07D
(1665678334.576984) can0 18F00E3D#00FB00FBFFFFFFFF
(1665678334.577390) can0 18F00F3D#00FB00FBFFFFFFFF
(1665678334.579530) can0 18F0090B#1F7D206C7DE67D7D
(1665678334.581186) can0 18FEF117#FFFFFFFFFFFFFFF0
(1665678334.582912) can0 18FEF121#F7FFFFCFFFFFFFFF
(1665678334.584503) can0 0CF00203#CC0000FFFF0000FF
(1665678334.584858) can0 0CF00400#007D7D000000F07D
(1665678334.585128) can0 18FEF131#CFFFFFF700FFFF3F
(1665678334.589517) can0 18F0090B#1F7D206C7DE67D7D
(1665678334.591921) can0 14F00121#FFFFFFFFFFFFFFFF
(1665678334.594524) can0 0CF00300#D10000FFFF0C00FF
(1665678334.594552) can0 0CF00203#CC0000FFFF0000FF
(1665678334.594908) can0 0CF00400#007D7D000000F07D
(1665678334.599538) can0 18F0090B#1F7D206C7DE67D7D
(1665678334.602098) can0 0CF00A01#00000000FFFFFFFF
(1665678334.602123) can0 10F01A01#409CFFFFFFFFFFFF
(1665678334.604519) can0 0CF00203#CC0000FFFF0000FF
(1665678334.604817) can0 0CF00400#007D7D000000F07D
(1665678334.607897) can0 0CF0233D#0000FFFFFF0CFFFF
(1665678334.609025) can0 0C0A0021#FCFFFFFFFFFFFFFF
(1665678334.609228) can0 18F0090B#1F7D206C7DE67D7D
(1665678334.611396) can0 14F0010B#0F00FFFFFF0DFFFF
(1665678334.611480) can0 18FEBF0B#00007D7D7D7DFFFF
(1665678334.613004) can0 14FDC40B#1F085FFFFFFFFFFF
(1665678334.614395) can0 0CF00203#CC0000FFFF0000FF
(1665678334.614679) can0 0CF00400#007D7D000000F07D
(1665678334.615209) can0 14FE4F0B#FF00FFFFFFFFFFFF
(1665678334.615417) can0 18FEDF00#7DFFFFFF7D0000FF
(1665678334.616962) can0 14FEF031#FFFFFFFFFFFFCCFF
(1665678334.618931) can0 14FF07E6#FFFFFFFFFFFFFFFF
(1665678334.619234) can0 18F0090B#1F7D206E7DE67D7D
(1665678334.620966) can0 14FF08E6#FFFFFFFFFFFFFFFF
(1665678334.622690) can0 10FF0021#02000000FF3F4D3F
(1665678334.624484) can0 0CF00203#CC0000FFFF0000FF
(1665678334.624762) can0 0CF00400#007D7D000000F07D
(1665678334.626916) can0 18F00E3D#00FB00FBFFFFFFFF
(1665678334.627197) can0 18F00F3D#00FB00FBFFFFFFFF
(1665678334.628470) can0 18FD8C3D#00001100FFFFFFFF
(1665678334.628975) can0 18FDB23D#0000462500000000
(1665678334.629239) can0 18F0090B#1F7D206E7DE67D7D
(1665678334.630530) can0 14FF0097#FFFFC3E501CECE00
(1665678334.632107) can0 18FBF53D#FFFFFFFF0000FFFF
(1665678334.634559) can0 0CF00203#CC0000FFFF0000FF
(1665678334.634817) can0 0CF00400#007D7D000000F07D
(1665678334.635129) can0 18F00131#FFFFCFFFFFFFFFFF
(1665678334.639199) can0 18F0090B#1F7D206E7DE67D7D
(1665678334.644475) can0 0CF00300#D10000FFFF0C00FF
(1665678334.644760) can0 0CF00203#CC0000FFFF0000FF
(1665678334.645047) can0 0CF00400#007D7D000000F07D
(1665678334.649130) can0 18F0090B#1F7D206C7DE67D7D
(1665678334.652152) can0 0CF00A01#00000000FFFFFFFF
(1665678334.652616) can0 10F01A01#409CFFFFFFFFFFFF
(1665678334.652879) can0 10FCFD01#FFFFFFFF00000000
(1665678334.653113) can0 18FD9401#6841FFFF00000302
(1665678334.653513) can0 1CFE9201#FFDCADFFFFFFFFFF
(1665678334.654581) can0 0CF00203#CC0000FFFF0000FF
(1665678334.654859) can0 0CF00400#007D7D000000F07D
(1665678334.656287) can0 18FE9601#FFFFFFFFFF00FFFF
(1665678334.656954) can0 18FD6501#DD01FFFFFFFFFFFF
(1665678334.657434) can0 0CF0233D#0000FFFFFF0CFFFF
(1665678334.657551) can0 18FD413D#FFFFFFFFFCFCFCFC
(1665678334.657843) can0 18FDA101#B303FFFFFFFF00FF
(1665678334.658069) can0 18FDAA01#FFFFFFFFFFFFFFFF
(1665678334.658374) can0 18FDD001#FFFFFF0030FFFFFF
(1665678334.658564) can0 18FEDB01#7601760176017601
(1665678334.658903) can0 18F0090B#1F7D206C7DE67D7D
(1665678334.661277) can0 18FBD600#FFFFFFFFFFFFFFFF
(1665678334.664425) can0 0CF00203#CC0000FFFF0000FF
(1665678334.664682) can0 0CF00400#007D7D000000F07D
(1665678334.665006) can0 18FEDF00#7DFFFFFF7D0000FF
(1665678334.665327) can0 1892FE00#FFFFFFFFFF09FFFF
(1665678334.665597) can0 18F0000F#DF7D7DFF0F7DFF7D
(1665678334.665868) can0 18F00100#FFFFFFFF00FFFFFF
(1665678334.666097) can0 18F00503#7D00007DFFFFFFFF
(1665678334.666474) can0 18FEE000#2700360027003600
(1665678334.666838) can0 18FEF100#FF0000FCFFFF00FF
(1665678334.667076) can0 18FEF200#000000000000FFFF
(1665678334.669104) can0 18F0090B#1F7D206B7DE67D7D
(1665678334.672523) can0 10FF0021#02000000FF3F4D3F
(1665678334.674430) can0 0CF00203#CC0000FFFF0000FF
(1665678334.674588) can0 0CF00400#007D7D000000F07D
(1665678334.676858) can0 18F00E3D#00FB00FBFFFFFFFF
(1665678334.677300) can0 18F00F3D#00FB00FBFFFFFFFF
(1665678334.677548) can0 18FD3E00#FFFFFF4325FFFFFF
(1665678334.679087) can0 18F0090B#1F7D20697DE67D7D
(1665678334.680979) can0 18FEF117#FFFFFFFFFFFFFFF0
(1665678334.682980) can0 18FEF121#F7FFFFCFFFFFFFFF
(1665678334.684531) can0 0CF00203#CC0000FFFF0000FF
(1665678334.684702) can0 0CF00400#007D7D000000F07D
(1665678334.685133) can0 18FEF131#CFFFFFF700FFFF3F
(1665678334.689482) can0 18F0090B#1F7D20697DE67D7D
(1665678334.692277) can0 14F00121#FFFFFFFFFFFFFFFF
(1665678334.694578) can0 0CF00300#D10000FFFF0C00FF
(1665678334.694733) can0 0CF00203#CC0000FFFF0000FF
(1665678334.694924) can0 0CF00400#007D7D000000F07D
(1665678334.699517) can0 18F0090B#1F7D20687DE67D7D
(1665678334.701997) can0 0CF00A01#00000000FFFFFFFF
(1665678334.702336) can0 10F01A01#409CFFFFFFFFFFFF
(1665678334.704647) can0 0CF00203#CC0000FFFF0000FF
(1665678334.704806) can0 0CF00400#007D7D000000F07D
(1665678334.707426) can0 0CF0233D#0000FFFFFF0CFFFF
(1665678334.709399) can0 0C0A0021#FCFFFFFFFFFFFFFF
(1665678334.709419) can0 18F0090B#1F7D20687DE67D7D
(1665678334.711417) can0 14F0010B#0F00FFFFFF0DFFFF
(1665678334.711815) can0 18FEBF0B#00007D7D7D7DFFFF
(1665678334.712922) can0 14FDC40B#1F085FFFFFFFFFFF
(1665678334.714499) can0 0CF00203#CC0000FFFF0000FF
(1665678334.714736) can0 0CF00400#007D7D000000F07D
(1665678334.715031) can0 14FE4F0B#FF00FFFFFFFFFFFF
(1665678334.715336) can0 18FEDF00#7DFFFFFF7D0000FF
(1665678334.716908) can0 14FEF031#FFFFFFFFFFFFCCFF
(1665678334.718863) can0 14FF07E6#FFFFFFFFFFFFFFFF
(1665678334.719118) can0 18F0090B#1F7D20687DE67D7D
(1665678334.722588) can0 10FF0021#02000000FF3F4D3F
(1665678334.724476) can0 0CF00203#CC0000FFFF0000FF
(1665678334.724809) can0 0CF00400#007D7D000000F07D
(1665678334.726795) can0 18F00E3D#00FB00FBFFFFFFFF
(1665678334.727042) can0 18F00F3D#00FB00FBFFFFFFFF
(1665678334.729103) can0 18F0090B#1F7D20687DE67D7D
(1665678334.731297) can0 14FF0097#FFFFC3E501CECE00
(1665678334.734486) can0 0CF00203#CC0000FFFF0000FF
(1665678334.734680) can0 0CF00400#007D7D000000F07D
(1665678334.734955) can0 18F00131#FFFFCFFFFFFFFFFF
(1665678334.739418) can0 18F0090B#1F7D20697DE67D7D
(1665678334.744356) can0 0CF00300#D10000FFFF0C00FF
(1665678334.744615) can0 0CF00203#CC0000FFFF0000FF
(1665678334.744917) can0 0CF00400#007D7D000000F07D
(1665678334.749120) can0 18F0090B#1F7D20697DE67D7D
(1665678334.752070) can0 0CF00A01#00000000FFFFFFFF
(1665678334.752433) can0 10F01A01#409CFFFFFFFFFFFF
(1665678334.752738) can0 10FCFD01#FFFFFFFF00000000
(1665678334.752918) can0 18FD9401#6841FFFF00000302
(1665678334.753297) can0 1CFE9201#FFDCADFFFFFFFFFF
(1665678334.754366) can0 0CF00203#CC0000FFFF0000FF
(1665678334.754545) can0 0CF00400#007D7D000000F07D
(1665678334.756133) can0 18FE9601#FFFFFFFFFF00FFFF
(1665678334.757114) can0 0CF0233D#0000FFFFFF0CFFFF
(1665678334.759004) can0 18F0090B#1F7D20687DE67D7D
(1665678334.761357) can0 18FBD600#FFFFFFFFFFFFFFFF
(1665678334.764466) can0 0CF00203#CC0000FFFF0000FF
(1665678334.764657) can0 0CF00400#007D7D000000F07D
(1665678334.765013) can0 18FEDF00#7DFFFFFF7D0000FF
(1665678334.765277) can0 1892FE00#FFFFFFFFFF09FFFF
(1665678334.765510) can0 18F0000F#DF7D7DFF0F7DFF7D
(1665678334.765835) can0 18F00100#FFFFFFFF00FFFFFF
(1665678334.766202) can0 18F00503#7D00007DFFFFFFFF
(1665678334.766483) can0 18FEE000#2700360027003600
(1665678334.766788) can0 18FEF100#FF0000FCFFFF00FF
(1665678334.767103) can0 18FEF200#000000000000FFFF
(1665678334.769025) can0 18F0090B#1F7D20687DE67D7D
(1665678334.772560) can0 10FF0021#02000000FF3F4D3F
(1665678334.774394) can0 0CF00203#CC0000FFFF0000FF
(1665678334.774660) can0 0CF00400#007D7D000000F07D
(1665678334.776762) can0 18F00E3D#00FB00FBFFFFFFFF
(1665678334.777120) can0 18F00F3D#00FB00FBFFFFFFFF
(1665678334.777391) can0 18FD203D#46254625FFFFFFFF
(1665678334.779029) can0 18F0090B#1F7D20687DE67D7D
(1665678334.780802) can0 18FEF117#FFFFFFFFFFFFFFF0
(1665678334.782845) can0 18FEF121#F7FFFFCFFFFFFFFF
(1665678334.784431) can0 0CF00203#CC0000FFFF0000FF
(1665678334.784695) can0 0CF00400#007D7D000000F07D
(1665678334.784970) can0 18FEF131#CFFFFFF700FFFF3F
(1665678334.789014) can0 18F0090B#1F7D20687DE67D7D
(1665678334.791788) can0 14F00121#FFFFFFFFFFFFFFFF
(1665678334.792087) can0 10FECA25#00FF00000000FFFF
(1665678334.794313) can0 0CF00300#D10000FFFF0C00FF
(1665678334.794588) can0 0CF00203#CC0000FFFF0000FF
(1665678334.794848) can0 0CF00400#007D7D000000F07D
(1665678334.799032) can0 18F0090B#1F7D20697DE67D7D
(1665678334.801563) can0 0CF00A01#00000000FFFFFFFF
(1665678334.801986) can0 10F01A01#409CFFFFFFFFFFFF
(1665678334.804440) can0 0CF00203#CC0000FFFF0000FF
(1665678334.804802) can0 0CF00400#007D7D000000F07D
(1665678334.807355) can0 0CF0233D#0000FFFFFF0CFFFF
(1665678334.808916) can0 0C0A0021#FCFFFFFFFFFFFFFF
(1665678334.809095) can0 18F0090B#1F7D20697DE67D7D
(1665678334.810884) can0 14F0010B#0F00FFFFFF0DFFFF
(1665678334.811583) can0 18FEBF0B#00007D7D7D7DFFFF
(1665678334.812885) can0 14FDC40B#1F085FFFFFFFFFFF
(1665678334.814513) can0 0CF00203#CC0000FFFF0000FF
(1665678334.814748) can0 0CF00400#007D7D000000F07D
(1665678334.815022) can0 14FE4F0B#FF00FFFFFFFFFFFF
(1665678334.815343) can0 18FEDF00#7DFFFFFF7D0000FF
(1665678334.816901) can0 14FEF031#FFFFFFFFFFFFCCFF
(1665678334.818897) can0 14FF07E6#FFFFFFFFFFFFFFFF
(1665678334.819123) can0 18F0090B#1F7D206B7DE67D7D
(1665678334.822600) can0 10FF0021#02000000FF3F4D3F
(1665678334.823715) can0 18FF0421#FFFFFFFFFFFB73DC
(1665678334.824548) can0 0CF00203#CC0000FFFF0000FF
(1665678334.824768) can0 0CF00400#007D7D000000F07D
(1665678334.826820) can0 18F00E3D#00FB00FBFFFFFFFF
(1665678334.827093) can0 18F00F3D#00FB00FBFFFFFFFF
(1665678334.829116) can0 18F0090B#1F7D206B7DE67D7D
(1665678334.831670) can0 14FF0097#FFFFC3E501CECE00
(1665678334.834504) can0 0CF00203#CC0000FFFF0000FF
(1665678334.834694) can0 0CF00400#007D7D000000F07D
(1665678334.834951) can0 18F00131#FFFFCFFFFFFFFFFF
(1665678334.839064) can0 18F0090B#1F7D206C7DE67D7D
(1665678334.844371) can0 0CF00300#D10000FFFF0C00FF
(1665678334.844698) can0 0CF00203#CC0000FFFF0000FF
(1665678334.844942) can0 0CF00400#007D7D000000F07D
(1665678334.849113) can0 18F0090B#1F7D206C7DE67D7D
(1665678334.852132) can0 0CF00A01#00000000FFFFFFFF
(1665678334.852487) can0 10F01A01#409CFFFFFFFFFFFF
(1665678334.852791) can0 10FCFD01#FFFFFFFF00000000
(1665678334.852990) can0 18FD9401#6841FFFF00000302
(1665678334.853431) can0 1CFE9201#FFDCADFFFFFFFFFF
(1665678334.854425) can0 0CF00203#CC0000FFFF0000FF
(1665678334.854694) can0 0CF00400#007D7D000000F07D
(1665678334.856206) can0 18FE9601#FFFFFFFFFF00FFFF
(1665678334.857107) can0 0CF0233D#0000FFFFFF0CFFFF
(1665678334.859016) can0 18F0090B#1F7D206C7DE67D7D
(1665678334.861339) can0 18FBD600#FFFFFFFFFFFFFFFF
(1665678334.864489) can0 0CF00203#CC0000FFFF0000FF
(1665678334.864774) can0 0CF00400#007D7D000000F07D
(1665678334.865058) can0 18FEDF00#7DFFFFFF7D0000FF
(1665678334.865381) can0 1892FE00#FFFFFFFFFF09FFFF
(1665678334.865642) can0 18F0000F#DF7D7DFF0F7DFF7D
(1665678334.865938) can0 18F00100#FFFFFFFF00FFFFFF
(1665678334.866271) can0 18F00503#7D00007DFFFFFFFF
(1665678334.866403) can0 18FEE000#2700360027003600
(1665678334.866692) can0 18FEF100#FF0000FCFFFF00FF
(1665678334.867037) can0 18FEF200#000000000000FFFF
(1665678334.868972) can0 18F0090B#1F7D206B7DE67D7D
(1665678334.872524) can0 10FF0021#02000000FF3F4D3F
(1665678334.874416) can0 0CF00203#CC0000FFFF0000FF
(1665678334.874697) can0 0CF00400#007D7D000000F07D
(1665678334.876739) can0 18F00E3D#00FB00FBFFFFFFFF
(1665678334.877204) can0 18F00F3D#00FB00FBFFFFFFFF
(1665678334.878933) can0 18FFC025#430CFF4050F0FFFF
(1665678334.879137) can0 18F0090B#1F7D206B7DE67D7D
(1665678334.880789) can0 18FEF117#FFFFFFFFFFFFFFF0
(1665678334.882821) can0 18FEF121#F7FFFFCFFFFFFFFF
(1665678334.884424) can0 0CF00203#CC0000FFFF0000FF
(1665678334.884700) can0 0CF00400#007D7D000000F07D
(1665678334.884955) can0 18FEF131#CFFFFFF700FFFF3F
(1665678334.885277) can0 18FFC125#FFFC5AC000000000
(1665678334.889012) can0 18F0090B#1F7D206B7DE67D7D
(1665678334.891111) can0 18FFC225#00102F012F015700
(1665678334.891634) can0 18FD0517#7FFFFFFFFFFFFFFF
(1665678334.891940) can0 14F00121#FFFFFFFFFFFFFFFF
(1665678334.894319) can0 0CF00300#D10000FFFF0C00FF
(1665678334.894593) can0 0CF00203#CC0000FFFF0000FF
(1665678334.894854) can0 0CF00400#007D7D000000F07D
(1665678334.896939) can0 18FFC325#2541F350200041C0
(1665678334.899034) can0 18F0090B#1F7D20697DE67D7D
(1665678334.901777) can0 0CF00A01#00000000FFFFFFFF
(1665678334.902214) can0 10F01A01#409CFFFFFFFFFFFF
(1665678334.902489) can0 18FF0817#000C0000FFFFFFFF
(1665678334.903015) can0 18FFC425#13D413D4F0FFF0FF
(1665678334.904346) can0 0CF00203#CC0000FFFF0000FF
(1665678334.904626) can0 0CF00400#007D7D000000F07D
(1665678334.907369) can0 0CF0233D#0000FFFFFF0CFFFF
(1665678334.908882) can0 0C0A0021#FCFFFFFFFFFFFFFF
(1665678334.909152) can0 18F0090B#1F7D20697DE67D7D
(1665678334.909308) can0 18FFC725#4300FCFFFFFFFFFF
(1665678334.910749) can0 14F0010B#0F00FFFFFF0DFFFF
(1665678334.911877) can0 18FEBF0B#00007D7D7D7DFFFF
(1665678334.912902) can0 14FDC40B#1F085FFFFFFFFFFF
(1665678334.914523) can0 0CF00203#CC0000FFFF0000FF
(1665678334.914591) can0 0CF00400#007D7D000000F07D
(1665678334.914884) can0 14FE4F0B#FF00FFFFFFFFFFFF
(1665678334.915149) can0 18FEDF00#7DFFFFFF7D0000FF
(1665678334.915433) can0 18FFC525#0105151401440011
(1665678334.916782) can0 14FEF031#FFFFFFFFFFFFCCFF
(1665678334.918905) can0 14FF07E6#FFFFFFFFFFFFFFFF
(1665678334.919087) can0 18F0090B#1F7D20697DE67D7D
(1665678334.921155) can0 18FFC625#1040000000002017
(1665678334.922593) can0 10FF0021#02000000FF3F4D3F
(1665678334.924430) can0 18FDB300#FFFF4625FFFFFFFF
(1665678334.924674) can0 0CF00203#CC0000FFFF0000FF
(1665678334.924981) can0 0CF00400#007D7D000000F07D
(1665678334.925185) can0 18FDB43D#46254625FFFFFFFF
(1665678334.925474) can0 18FEF600#FF004130FFFFFFFF
(1665678334.926777) can0 18F00E3D#00FB00FBFFFFFFFF
(1665678334.926976) can0 18FFC925#000000000000F0FF
(1665678334.927353) can0 18F00F3D#00FB00FBFFFFFFFF
(1665678334.929043) can0 18F0090B#1F7D20687DE67D7D
(1665678334.931422) can0 18FE700B#FFFFFFFFFFFFFFFF
(1665678334.932770) can0 14FF0097#FFFFC3E501CECE00
(1665678334.933021) can0 18FFCA25#01465F5FAC0D6419
(1665678334.934516) can0 0CF00203#CC0000FFFF0000FF
(1665678334.934762) can0 0CF00400#007D7D000000F07D
(1665678334.935082) can0 18F00131#FFFFCFFFFFFFFFFF
(1665678334.939147) can0 18F0090B#1F7D20687DE67D7D
(1665678334.944391) can0 0CF00300#D10000FFFF0C00FF
(1665678334.944659) can0 0CF00203#CC0000FFFF0000FF
(1665678334.944921) can0 0CF00400#007D7D000000F07D
(1665678334.949077) can0 18F0090B#1F7D20667DE67D7D
(1665678334.952016) can0 0CF00A01#00000000FFFFFFFF
(1665678334.952528) can0 10F01A01#409CFFFFFFFFFFFF
(1665678334.952784) can0 10FCFD01#FFFFFFFF00000000
(1665678334.952976) can0 18FD9401#6841FFFF00000302
(1665678334.953430) can0 1CFE9201#FFDCADFFFFFFFFFF
(1665678334.954445) can0 0CF00203#CC0000FFFF0000FF
(1665678334.954730) can0 0CF00400#007D7D000000F07D
(1665678334.954997) can0 18FECA00#03FF00000000FFFF
(1665678334.956214) can0 18FE9601#FFFFFFFFFF00FFFF
(1665678334.957324) can0 0CF0233D#0000FFFFFF0CFFFF
(1665678334.959111) can0 18F0090B#1F7D20657DE67D7D
(1665678334.961435) can0 18FBD600#FFFFFFFFFFFFFFFF
(1665678334.964480) can0 0CF00203#CC0000FFFF0000FF
(1665678334.964746) can0 0CF00400#007D7D000000F07D
(1665678334.965161) can0 18FEDF00#7DFFFFFF7D0000FF
(1665678334.965432) can0 1892FE00#FFFFFFFFFF09FFFF
(1665678334.965710) can0 18F0000F#DF7D7DFF0F7DFF7D
(1665678334.966037) can0 18F00100#FFFFFFFF00FFFFFF
(1665678334.966280) can0 18F00503#7D00007DFFFFFFFF
(1665678334.966600) can0 18FEE000#2700360027003600
(1665678334.966726) can0 18FEF100#FF0000FCFFFF00FF
(1665678334.967074) can0 18FEF200#000000000000FFFF
(1665678334.967545) can0 18FEEF00#00FFFF00FFFFFFFA
(1665678334.967647) can0 18FD0900#0000000033B70709
(1665678334.968110) can0 18FDE000#FFFFFFFFFFFFFFFF
(1665678334.968513) can0 18FEC100#D2034605D2034605
(1665678334.968761) can0 18FEE400#FF7FFFFFFFFFFFFF
(1665678334.969037) can0 18F0090B#1F7D20657DE67D7D
(1665678334.969352) can0 18FEF500#C3FFFFF424FFFFFF
(1665678334.969438) can0 18FEF700#FFFFFFFFFD00FFFF
(1665678334.969740) can0 18FF7400#5D00FFFFFFCFFFFF
(1665678334.972393) can0 10FF0021#02000000FF3F4D3F
(1665678334.974284) can0 0CF00203#CC0000FFFF0000FF
(1665678334.974560) can0 0CF00400#007D7D000000F07D
(1665678334.976679) can0 18F00E3D#00FB00FBFFFFFFFF
(1665678334.977117) can0 18F00F3D#00FB00FBFFFFFFFF
(1665678334.978887) can0 18F0090B#1F7D20657DE67D7D
(1665678334.980768) can0 18FEF117#FFFFFFFFFFFFFFF0
(1665678334.982795) can0 18FEF121#F7FFFFCFFFFFFFFF
(1665678334.984362) can0 0CF00203#CC0000FFFF0000FF
(1665678334.984619) can0 0CF00400#007D7D000000F07D
(1665678334.984947) can0 18FEF131#CFFFFFF700FFFF3F
(1665678334.989001) can0 18F0090B#1F7D20657DE67D7D
(1665678334.991831) can0 14F00121#FFFFFFFFFFFFFFFF
(1665678334.994409) can0 0CF00300#D10000FFFF0C00FF
(1665678334.994668) can0 0CF00203#CC0000FFFF0000FF
(1665678334.994932) can0 0CF00400#007D7D000000F07D
(1665678334.999206) can0 18F0090B#1F7D20657DE67D7D
(1665678335.001625) can0 0CF00A01#00000000FFFFFFFF
(1665678335.002064) can0 10F01A01#409CFFFFFFFFFFFF
(1665678335.004523) can0 0CF00203#CC0000FFFF0000FF
(1665678335.004792) can0 0CF00400#007D7D000000F07D
(1665678335.007392) can0 0CF0233D#0000FFFFFF0CFFFF
(1665678335.008845) can0 0C0A0021#FCFFFFFFFFFFFFFF
(1665678335.009043) can0 18F0090B#1F7D20667DE67D7D
(1665678335.010881) can0 14F0010B#0F00FFFFFF0DFFFF
(1665678335.012026) can0 18FEBF0B#00007D7D7D7DFFFF
(1665678335.012904) can0 14FDC40B#1F085FFFFFFFFFFF
(1665678335.014520) can0 0CF00203#CC0000FFFF0000FF
(1665678335.014807) can0 0CF00400#007D7D000000F07D
(1665678335.015049) can0 14FE4F0B#FF00FFFFFFFFFFFF
(1665678335.015343) can0 18FEDF00#7DFFFFFF7D0000FF
(1665678335.016899) can0 14FEF031#FFFFFFFFFFFFCCFF
(1665678335.018908) can0 14FF07E6#FFFFFFFFFFFFFFFF
(1665678335.019080) can0 18F0090B#1F7D20687DE67D7D
(1665678335.021491) can0 1CDE0317#F0FFFFFFFFFFFFFF
(1665678335.022596) can0 10FF0021#02000000FF3F4D3F
(1665678335.024522) can0 0CF00203#CC0000FFFF0000FF
(1665678335.024790) can0 0CF00400#007D7D000000F07D
(1665678335.026841) can0 18F00E3D#00FB00FBFFFFFFFF
(1665678335.027090) can0 18F00F3D#00FB00FBFFFFFFFF
(1665678335.029130) can0 18F0090B#1F7D20697DE67D7D
(1665678335.033721) can0 14FF0097#FFFFC3E501CECE00
(1665678335.034503) can0 0CF00203#CC0000FFFF0000FF
(1665678335.034713) can0 0CF00400#007D7D000000F07D
(1665678335.034937) can0 18F00131#FFFFCFFFFFFFFFFF
(1665678335.039123) can0 18F0090B#1F7D20697DE67D7D
(1665678335.044354) can0 0CF00300#D10000FFFF0C00FF
(1665678335.044671) can0 0CF00203#CC0000FFFF0000FF
(1665678335.044875) can0 0CF00400#007D7D000000F07D
(1665678335.049106) can0 18F0090B#1F7D206B7DE67D7D
(1665678335.052090) can0 0CF00A01#00000000FFFFFFFF
(1665678335.052512) can0 10F01A01#409CFFFFFFFFFFFF
(1665678335.052778) can0 10FCFD01#FFFFFFFF00000000
(1665678335.052967) can0 18FD9401#6841FFFF00000302
(1665678335.053397) can0 1CFE9201#FFDCADFFFFFFFFFF
(1665678335.054522) can0 0CF00203#CC0000FFFF0000FF
(1665678335.054768) can0 0CF00400#007D7D000000F07D
(1665678335.056217) can0 18FE9601#FFFFFFFFFF00FFFF
(1665678335.057313) can0 0CF0233D#0000FFFFFF0CFFFF
(1665678335.057566) can0 18FF0097#464D2039342E3120
(1665678335.059116) can0 18F0090B#1F7D206B7DE67D7D
(1665678335.061434) can0 18FBD600#FFFFFFFFFFFFFFFF
(1665678335.064575) can0 0CF00203#CC0000FFFF0000FF
(1665678335.064831) can0 0CF00400#007D7D000000F07D
(1665678335.065128) can0 18FEDF00#7DFFFFFF7D0000FF
(1665678335.065411) can0 1892FE00#FFFFFFFFFF09FFFF
(1665678335.065735) can0 18F0000F#DF7D7DFF0F7DFF7D
(1665678335.066043) can0 18F00100#FFFFFFFF00FFFFFF
(1665678335.066326) can0 18F00503#7D00007DFFFFFFFF
(1665678335.066495) can0 18FEE000#2700360027003600
(1665678335.066813) can0 18FEF100#FF0000FCFFFF00FF
(1665678335.067099) can0 18FEF200#000000000000FFFF
(1665678335.069058) can0 18F0090B#1F7D206B7DE67D7D
(1665678335.072585) can0 10FF0021#02000000FF3F4D3F
(1665678335.074514) can0 0CF00203#CC0000FFFF0000FF
(1665678335.074742) can0 0CF00400#007D7D000000F07D
(1665678335.076798) can0 18F00E3D#00FB00FBFFFFFFFF
(1665678335.077178) can0 18F00F3D#00FB00FBFFFFFFFF
(1665678335.079108) can0 18F0090B#1F7D20697DE67D7D
(1665678335.080917) can0 18FEF117#FFFFFFFFFFFFFFF0
(1665678335.082902) can0 18FEF121#F7FFFFCFFFFFFFFF
(1665678335.084515) can0 0CF00203#CC0000FFFF0000FF
(1665678335.084800) can0 0CF00400#007D7D000000F07D
(1665678335.085075) can0 18FEF131#CFFFFFF700FFFF3F
(1665678335.089095) can0 18F0090B#1F7D20697DE67D7D
(1665678335.091892) can0 14F00121#FFFFFFFFFFFFFFFF
(1665678335.094416) can0 0CF00300#D10000FFFF0C00FF
(1665678335.094647) can0 0CF00203#CC0000FFFF0000FF
(1665678335.094971) can0 0CF00400#007D7D000000F07D
(1665678335.095267) can0 18FD0900#0000000033B70709
(1665678335.095511) can0 18FD7C00#FF80C13030FF1FFF
(1665678335.095800) can0 18FECA03#03FF00000000FFFF
(1665678335.096192) can0 18FECA11#03FF00000000FFFF
(1665678335.096430) can0 18FCDC00#FFFFFFFFFFFFFFFF
(1665678335.099056) can0 18F0090B#1F7D20697DE67D7D
(1665678335.101809) can0 0CF00A01#00000000FFFFFFFF
(1665678335.102209) can0 10F01A01#409CFFFFFFFFFFFF
(1665678335.104518) can0 0CF00203#CC0000FFFF0000FF
(1665678335.104801) can0 0CF00400#007D7D000000F07D
(1665678335.107418) can0 0CF0233D#0000FFFFFF0CFFFF
(1665678335.108896) can0 0C0A0021#FCFFFFFFFFFFFFFF
(1665678335.109112) can0 18F0090B#1F7D20697DE67D7D
(1665678335.110900) can0 14F0010B#0F00FFFFFF0DFFFF
(1665678335.111737) can0 18FEBF0B#00007D7D7D7DFFFF
(1665678335.112893) can0 14FDC40B#1F085FFFFFFFFFFF
(1665678335.114494) can0 0CF00203#CC0000FFFF0000FF
(1665678335.114742) can0 0CF00400#007D7D000000F07D
(1665678335.115029) can0 14FE4F0B#FF00FFFFFFFFFFFF
(1665678335.115316) can0 18FEDF00#7DFFFFFF7D0000FF
(1665678335.116881) can0 14FEF031#FFFFFFFFFFFFCCFF
(1665678335.118868) can0 14FF07E6#FFFFFFFFFFFFFFFF
(1665678335.119343) can0 18F0090B#1F7D20697DE67D7D
(1665678335.120930) can0 14FF08E6#FFFFFFFFFFFFFFFF
(1665678335.122585) can0 10FF0021#02000000FF3F4D3F
(1665678335.122847) can0 18E00017#FFFFFFFFFFF0FFFF
(1665678335.124415) can0 0CF00203#CC0000FFFF0000FF
(1665678335.124711) can0 0CF00400#007D7D000000F07D
(1665678335.124993) can0 18E00019#00FFFFFCFFFFFFFF
(1665678335.126820) can0 18F00E3D#00FB00FBFFFFFFFF
(1665678335.127122) can0 18E00031#FFFFFFFFFFFFFFFF
(1665678335.127310) can0 18F00F3D#00FB00FBFFFFFFFF
(1665678335.127480) can0 18FECA3D#43FF900C1504FFFF
(1665678335.128837) can0 18FD8C3D#00001100FFFFFFFF
(1665678335.129095) can0 18E0FF21#FFFFFFFFFFFFFFFF
(1665678335.129341) can0 18FDB23D#0000462500000000
(1665678335.129594) can0 18F0090B#1F7D20697DE67D7D
(1665678335.130402) can0 18FFA63D#00FF00000000FFFF
(1665678335.132660) can0 18FBF53D#FFFFFFFF0000FFFF
(1665678335.134473) can0 0CF00203#CC0000FFFF0000FF
(1665678335.134672) can0 0CF00400#007D7D000000F07D
(1665678335.134967) can0 14FF0097#FFFFC3E501CECE00
(1665678335.135248) can0 18F00131#FFFFCFFFFFFFFFFF
(1665678335.138894) can0 18FECA0B#C0FF00000000FFFF
(1665678335.139150) can0 18F0090B#1F7D206B7DE67D7D
(1665678335.140934) can0 18FECA13#00FF0000007FFFFF
(1665678335.142907) can0 18FECA17#00FF00000000FFFF
(1665678335.144445) can0 0CF00300#D10000FFFF0C00FF
(1665678335.144660) can0 0CF00203#CC0000FFFF0000FF
(1665678335.144902) can0 18FECA19#00FF0000007FFFFF
(1665678335.145199) can0 0CF00400#007D7D000000F07D
(1665678335.146890) can0 18FECA21#00FF0000007FFFFF
(1665678335.148879) can0 18FECA2A#00FF0000007FFFFF
(1665678335.149069) can0 18F0090B#1F7D206B7DE67D7D
(1665678335.150915) can0 18FECA3A#00FF0000007FFFFF
(1665678335.152103) can0 0CF00A01#00000000FFFFFFFF
(1665678335.152560) can0 10F01A01#409CFFFFFFFFFFFF
(1665678335.152757) can0 18FECA01#43FF7F020E02FFFF
(1665678335.152985) can0 10FCFD01#FFFFFFFF00000000
(1665678335.153379) can0 18FECA45#00FF0000007FFFFF
(1665678335.153625) can0 18FD9401#6841FFFF00000302
(1665678335.153915) can0 1CFE9201#FFDCADFFFFFFFFFF
(1665678335.154529) can0 0CF00203#CC0000FFFF0000FF
(1665678335.154727) can0 0CF00400#007D7D000000F07D
(1665678335.155035) can0 18FECA4A#00FF0000007FFFFF
(1665678335.156499) can0 18FE9601#FFFFFFFFFF00FFFF
(1665678335.156748) can0 18FECA7F#00FF0000007FFFFF
(1665678335.157063) can0 0CF0233D#0000FFFFFF0CFFFF
(1665678335.157342) can0 18FD413D#FFFFFFFFFCFCFCFC
(1665678335.157623) can0 18FD6501#DD01FFFFFFFFFFFF
(1665678335.158149) can0 18FDA101#B303FFFFFFFF00FF
(1665678335.158592) can0 18FDAA01#FFFFFFFFFFFFFFFF
(1665678335.158849) can0 18FECA85#00FF0000007FFFFF
(1665678335.159154) can0 18FDD001#FFFFFF0030FFFFFF
(1665678335.159416) can0 18F0090B#1F7D20697DE67D7D
(1665678335.159703) can0 18FEDB01#7601760176017601
(1665678335.160003) can0 18FD6601#FF3DFFFFFFFFFFFF
(1665678335.160283) can0 18FE6901#4725E024FFFF2525
(1665678335.160783) can0 18FECAE8#00FF00000000FFFF
(1665678335.161912) can0 18FE9701#FFFFFFFFFFFFFFFF
(1665678335.162177) can0 18FE9801#6027FFFFFFFFFFFF
(1665678335.162488) can0 18FE9901#FFFFFFFFFFFFFFFF
(1665678335.162750) can0 18FECAEC#00FF0000007FFFFF
(1665678335.163091) can0 18FE9A01#3825FFFFFFFFFFFF
(1665678335.163382) can0 18FEDD01#FF0000FFFFFFFFFF
(1665678335.163565) can0 18FFAA01#0000EC05F27C6564
(1665678335.163972) can0 18FFAB01#C61706007DFA6810
(1665678335.164386) can0 0CF00203#CC0000FFFF0000FF
(1665678335.164664) can0 0CF00400#007D7D000000F07D
(1665678335.165013) can0 18FECAED#00FF0000007FFFFF
(1665678335.165249) can0 18FEDF00#7DFFFFFF7D0000FF
(1665678335.165595) can0 1892FE00#FFFFFFFFFF09FFFF
(1665678335.165851) can0 18F0000F#DF7D7DFF0F7DFF7D
(1665678335.166231) can0 18F00100#FFFFFFFF00FFFFFF
(1665678335.166479) can0 18F00503#7D00007DFFFFFFFF
(1665678335.166759) can0 18FEE000#2700360027003600
(1665678335.167099) can0 18FEF100#FF0000FCFFFF00FF
(1665678335.167379) can0 18FEF200#000000000000FFFF
(1665678335.167714) can0 18FDD301#FFFFFFFFFFFFFFFF
(1665678335.167978) can0 18FE5600#F93CFFFF1F1FFFFF
(1665678335.168271) can0 18FEA400#FFFF5525FA7CFFFF
(1665678335.168567) can0 18FEEE00#3E3DD424FFFF40FF
(1665678335.168927) can0 18FEE419#FFFFFCFFFFFFFFFF
(1665678335.169140) can0 18FFA53D#FFFF511B43254325
(1665678335.169420) can0 18F0090B#1F7D20697DE67D7D
(1665678335.169711) can0 18FBD600#FFFFFFFFFFFFFFFF
(1665678335.170002) can0 18FFAC01#000000190B00F0FF
(1665678335.170300) can0 18FFAD01#6900FFFF0000FFFF
(1665678335.170636) can0 18FFAE01#00FF00000000FFFF
(1665678335.172349) can0 10FF0021#02000000FF3F4D3F
(1665678335.174273) can0 0CF00203#CC0000FFFF0000FF
(1665678335.174571) can0 0CF00400#007D7D000000F07D
(1665678335.176612) can0 18F00E3D#00FB00FBFFFFFFFF
(1665678335.177052) can0 18F00F3D#00FB00FBFFFFFFFF
(1665678335.177328) can0 18FD3E00#FFFFFF4325FFFFFF
(1665678335.178882) can0 18F0090B#1F7D20697DE67D7D
(1665678335.180695) can0 18FEF117#FFFFFFFFFFFFFFF0
(1665678335.182711) can0 18FEF121#F7FFFFCFFFFFFFFF
(1665678335.184310) can0 0CF00203#CC0000FFFF0000FF
(1665678335.184583) can0 0CF00400#007D7D000000F07D
(1665678335.184905) can0 18FEF131#CFFFFFF700FFFF3F
(1665678335.187195) can0 18FD9B3D#FFFFFFFFFFFFFFFF
(1665678335.188673) can0 18FF0025#F0FF640A27003600
(1665678335.188934) can0 18F0090B#1F7D20687DE67D7D
(1665678335.191670) can0 14F00121#FFFFFFFFFFFFFFFF
(1665678335.192719) can0 1CFEC347#FFFFFFFFFFFFFFFF
(1665678335.194177) can0 0CF00300#D10000FFFF0C00FF
(1665678335.194462) can0 0CF00203#CC0000FFFF0000FF
(1665678335.194771) can0 0CF00400#007D7D000000F07D
(1665678335.198881) can0 18F0090B#1F7D20687DE67D7D
(1665678335.201405) can0 0CF00A01#00000000FFFFFFFF
(1665678335.201864) can0 10F01A01#409CFFFFFFFFFFFF
(1665678335.204298) can0 0CF00203#CC0000FFFF0000FF
(1665678335.204691) can0 0CF00400#007D7D000000F07D
(1665678335.207264) can0 0CF0233D#0000FFFFFF0CFFFF
(1665678335.208848) can0 0C0A0021#FCFFFFFFFFFFFFFF
(1665678335.209098) can0 18F0090B#1F7D20687DE67D7D
(1665678335.210859) can0 14F0010B#0F00FFFFFF0DFFFF
(1665678335.211966) can0 18FEBF0B#00007D7D7D7DFFFF
(1665678335.212871) can0 14FDC40B#1F085FFFFFFFFFFF
(1665678335.214475) can0 0CF00203#CC0000FFFF0000FF
(1665678335.214682) can0 0CF00400#007D7D000000F07D
(1665678335.214972) can0 14FE4F0B#FF00FFFFFFFFFFFF
(1665678335.215198) can0 18FEDF00#7DFFFFFF7D0000FF
(1665678335.216780) can0 14FEF031#FFFFFFFFFFFFCCFF
(1665678335.217464) can0 18FD3C3D#0000FFFFFFCCFFFF
(1665678335.218766) can0 14FF07E6#FFFFFFFFFFFFFFFF
(1665678335.219033) can0 18F0090B#1F7D20687DE67D7D
(1665678335.222488) can0 10FF0021#02000000FF3F4D3F
(1665678335.222832) can0 14FF0097#FFFFC3E501CECE00
(1665678335.224405) can0 0CF00203#CC0000FFFF0000FF
(1665678335.224782) can0 0CF00400#007D7D000000F07D
(1665678335.226705) can0 18F00E3D#00FB00FBFFFFFFFF
(1665678335.227039) can0 18F00F3D#00FB00FBFFFFFFFF
(1665678335.228986) can0 18F0090B#1F7D20667DE67D7D
(1665678335.234423) can0 0CF00203#CC0000FFFF0000FF
(1665678335.234692) can0 0CF00400#007D7D000000F07D
(1665678335.235099) can0 18F00131#FFFFCFFFFFFFFFFF
(1665678335.237366) can0 18FFA33D#0000FFFF8010FFFF
(1665678335.239040) can0 18F0090B#1F7D20667DE67D7D
(1665678335.244336) can0 0CF00300#D10000FFFF0C00FF
(1665678335.244587) can0 0CF00203#CC0000FFFF0000FF
(1665678335.244879) can0 0CF00400#007D7D000000F07D
(1665678335.247604) can0 18FFA43D#D606D606FFFFFCFF
(1665678335.249051) can0 18F0090B#1F7D20667DE67D7D
(1665678335.252016) can0 0CF00A01#00000000FFFFFFFF
(1665678335.252430) can0 10F01A01#409CFFFFFFFFFFFF
(1665678335.252903) can0 10FCFD01#FFFFFFFF00000000
(1665678335.253280) can0 18FD9401#6841FFFF00000302
(1665678335.253780) can0 1CFE9201#FFDCADFFFFFFFFFF
(1665678335.254461) can0 0CF00203#CC0000FFFF0000FF
(1665678335.254714) can0 0CF00400#007D7D000000F07D
(1665678335.256574) can0 18FE9601#FFFFFFFFFF00FFFF
(1665678335.257194) can0 0CF0233D#0000FFFFFF0CFFFF
(1665678335.257473) can0 18FFA23D#0000F626E803340F
(1665678335.259043) can0 18F0090B#1F7D20667DE67D7D
(1665678335.261415) can0 18FBD600#FFFFFFFFFFFFFFFF
(1665678335.264499) can0 0CF00203#CC0000FFFF0000FF
(1665678335.264753) can0 0CF00400#007D7D000000F07D
(1665678335.265072) can0 18FEDF00#7DFFFFFF7D0000FF
(1665678335.265365) can0 1892FE00#FFFFFFFFFF09FFFF
(1665678335.265644) can0 18F0000F#DF7D7DFF0F7DFF7D
(1665678335.265999) can0 18F00100#FFFFFFFF00FFFFFF
(1665678335.266193) can0 18F00503#7D00007DFFFFFFFF
(1665678335.266502) can0 18FEE000#2700360027003600
(1665678335.266790) can0 18FEF100#FF0000FCFFFF00FF
(1665678335.267115) can0 18FEF200#000000000000FFFF
(1665678335.267512) can0 18FFA03D#1A0D1A00190000FF
(1665678335.269049) can0 18F0090B#1F7D20667DE67D7D
(1665678335.272502) can0 10FF0021#02000000FF3F4D3F
(1665678335.274442) can0 0CF00203#CC0000FFFF0000FF
(1665678335.274712) can0 0CF00400#007D7D000000F07D
(1665678335.276788) can0 18F00E3D#00FB00FBFFFFFFFF
(1665678335.277204) can0 18F00F3D#00FB00FBFFFFFFFF
(1665678335.277466) can0 18FD203D#46254625FFFFFFFF
(1665678335.277727) can0 18FFA13D#8B028B021AFFFF30
(1665678335.279017) can0 18F0090B#1F7D20667DE67D7D
(1665678335.280847) can0 18FEF117#FFFFFFFFFFFFFFF0
(1665678335.282894) can0 18FEF121#F7FFFFCFFFFFFFFF
(1665678335.284456) can0 0CF00203#CC0000FFFF0000FF
(1665678335.284700) can0 0CF00400#007D7D000000F07D
(1665678335.284981) can0 18FEF131#CFFFFFF700FFFF3F
(1665678335.289064) can0 18F0090B#1F7D20667DE67D7D
(1665678335.291897) can0 14F00121#FFFFFFFFFFFFFFFF
(1665678335.294384) can0 0CF00300#D10000FFFF0C00FF
(1665678335.294542) can0 18FEE925#0000000058950400
(1665678335.294828) can0 0CF00203#CC0000FFFF0000FF
(1665678335.295245) can0 0CF00400#007D7D000000F07D
(1665678335.299070) can0 18F0090B#1F7D20667DE67D7D
(1665678335.301797) can0 0CF00A01#00000000FFFFFFFF
(1665678335.302251) can0 10F01A01#409CFFFFFFFFFFFF
(1665678335.304487) can0 0CF00203#CC0000FFFF0000FF
(1665678335.304697) can0 0CF00400#007D7D000000F07D
(1665678335.307364) can0 0CF0233D#0000FFFFFF0CFFFF
(1665678335.308862) can0 0C0A0021#FCFFFFFFFFFFFFFF
(1665678335.309036) can0 18F0090B#1F7D20667DE67D7D
(1665678335.310877) can0 14F0010B#0F00FFFFFF0DFFFF
(1665678335.311672) can0 18FEBF0B#00007D7D7D7DFFFF
(1665678335.312875) can0 14FDC40B#1F085FFFFFFFFFFF
(1665678335.314455) can0 0CF00203#CC0000FFFF0000FF
(1665678335.314740) can0 0CF00400#007D7D000000F07D
(1665678335.315003) can0 14FE4F0B#FF00FFFFFFFFFFFF
(1665678335.315270) can0 18FEDF00#7DFFFFFF7D0000FF
(1665678335.316820) can0 14FEF031#FFFFFFFFFFFFCCFF
(1665678335.318848) can0 14FF07E6#FFFFFFFFFFFFFFFF
(1665678335.319106) can0 18F0090B#1F7D20667DE67D7D
(1665678335.322537) can0 10FF0021#02000000FF3F4D3F
(1665678335.324483) can0 0CF00203#CC0000FFFF0000FF
(1665678335.324764) can0 0CF00400#007D7D000000F07D
(1665678335.326496) can0 14FF0097#FFFFC3E501CECE00
(1665678335.326755) can0 18F00E3D#00FB00FBFFFFFFFF
(1665678335.327046) can0 18F00F3D#00FB00FBFFFFFFFF
(1665678335.329058) can0 18F0090B#1F7D20667DE67D7D
(1665678335.334450) can0 0CF00203#CC0000FFFF0000FF
(1665678335.334694) can0 0CF00400#007D7D000000F07D
(1665678335.334984) can0 18F00131#FFFFCFFFFFFFFFFF
(1665678335.339082) can0 18F0090B#1F7D20687DE67D7D
(1665678335.344330) can0 0CF00300#D10000FFFF0C00FF
(1665678335.344672) can0 0CF00203#CC0000FFFF0000FF
(1665678335.344906) can0 0CF00400#007D7D000000F07D
(1665678335.349054) can0 18F0090B#1F7D20687DE67D7D
(1665678335.352036) can0 0CF00A01#00000000FFFFFFFF
(1665678335.352453) can0 10F01A01#409CFFFFFFFFFFFF
(1665678335.352743) can0 10FCFD01#FFFFFFFF00000000
(1665678335.352925) can0 18FD9401#6841FFFF00000302
(1665678335.353338) can0 1CFE9201#FFDCADFFFFFFFFFF
(1665678335.354460) can0 0CF00203#CC0000FFFF0000FF
(1665678335.354696) can0 0CF00400#007D7D000000F07D
(1665678335.356110) can0 18FE9601#FFFFFFFFFF00FFFF
(1665678335.357146) can0 0CF0233D#0000FFFFFF0CFFFF
(1665678335.359039) can0 18F0090B#1F7D20697DE67D7D
(1665678335.361411) can0 18FBD600#FFFFFFFFFFFFFFFF
(1665678335.364514) can0 0CF00203#CC0000FFFF0000FF
(1665678335.364784) can0 0CF00400#007D7D000000F07D
(1665678335.365090) can0 18FEDF00#7DFFFFFF7D0000FF
(1665678335.365403) can0 1892FE00#FFFFFFFFFF09FFFF
(1665678335.365684) can0 18F0000F#DF7D7DFF0F7DFF7D
(1665678335.366000) can0 18F00100#FFFFFFFF00FFFFFF
(1665678335.366287) can0 18F00503#7D00007DFFFFFFFF
(1665678335.366441) can0 18FEE000#2700360027003600
(1665678335.366777) can0 18FEF100#FF0000FCFFFF00FF
(1665678335.367062) can0 18FEF200#000000000000FFFF
(1665678335.369059) can0 18F0090B#1F7D206B7DE67D7D
(1665678335.372489) can0 10FF0021#02000000FF3F4D3F
(1665678335.374474) can0 0CF00203#CC0000FFFF0000FF
(1665678335.374697) can0 0CF00400#007D7D000000F07D
(1665678335.376787) can0 18F00E3D#00FB00FBFFFFFFFF
(1665678335.377204) can0 18F00F3D#00FB00FBFFFFFFFF
(1665678335.379112) can0 18F0090B#1F7D206B7DE67D7D
(1665678335.380861) can0 18FEF117#FFFFFFFFFFFFFFF0
(1665678335.382894) can0 18FEF121#F7FFFFCFFFFFFFFF
(1665678335.384388) can0 0CF00203#CC0000FFFF0000FF
(1665678335.384778) can0 0CF00400#007D7D000000F07D
(1665678335.384993) can0 18FEF131#CFFFFFF700FFFF3F
(1665678335.389043) can0 18F0090B#1F7D206B7DFA7D7D
(1665678335.391872) can0 14F00121#FFFFFFFFFFFFFFFF
(1665678335.394407) can0 0CF00300#D10000FFFF0C00FF
(1665678335.394599) can0 0CF00203#CC0000FFFF0000FF
(1665678335.394914) can0 0CF00400#007D7D000000F07D
(1665678335.399030) can0 18F0090B#1F7D206B7DFA7D7D
(1665678335.401649) can0 0CF00A01#00000000FFFFFFFF
(1665678335.402008) can0 10F01A01#409CFFFFFFFFFFFF
(1665678335.404470) can0 0CF00203#CC0000FFFF0000FF
(1665678335.404736) can0 0CF00400#007D7D000000F07D
(1665678335.407367) can0 0CF0233D#0000FFFFFF0CFFFF
(1665678335.408863) can0 0C0A0021#FCFFFFFFFFFFFFFF
(1665678335.409072) can0 18F0090B#1F7D20697DFA7D7D
(1665678335.410875) can0 14F0010B#0F00FFFFFF0DFFFF
(1665678335.411642) can0 18FEBF0B#00007D7D7D7DFFFF
(1665678335.412833) can0 14FDC40B#1F085FFFFFFFFFFF
(1665678335.414540) can0 0CF00203#CC0000FFFF0000FF
(1665678335.414682) can0 0CF00400#007D7D000000F07D
(1665678335.414952) can0 14FE4F0B#FF00FFFFFFFFFFFF
(1665678335.415239) can0 18FEDF00#7DFFFFFF7D0000FF
(1665678335.416784) can0 14FEF031#FFFFFFFFFFFFCCFF
(1665678335.418954) can0 14FF07E6#FFFFFFFFFFFFFFFF
(1665678335.419187) can0 18F0090B#1F7D20697DE67D7D
(1665678335.422603) can0 10FF0021#02000000FF3F4D3F
(1665678335.424517) can0 18FDB300#FFFF4625FFFFFFFF
(1665678335.424777) can0 0CF00203#CC0000FFFF0000FF
(1665678335.424997) can0 0CF00400#007D7D000000F07D
(1665678335.425299) can0 18FDB43D#46254625FFFFFFFF
(1665678335.425492) can0 18FEF600#FF004130FFFFFFFF
(1665678335.425818) can0 18FEFC00#FFC6FFFFFFFFFFFF
(1665678335.426703) can0 18F00E3D#00FB00FBFFFFFFFF
(1665678335.427039) can0 18F00F3D#00FB00FBFFFFFFFF
(1665678335.428058) can0 14FF0097#FFFFC3E501CECE00
(1665678335.429107) can0 18F0090B#1F7D20687DE67D7D
(1665678335.434521) can0 0CF00203#CC0000FFFF0000FF
(1665678335.434793) can0 0CF00400#007D7D000000F07D
(1665678335.435068) can0 18F00131#FFFFCFFFFFFFFFFF
(1665678335.439124) can0 18F0090B#1F7D20687DE67D7D
(1665678335.444458) can0 0CF00300#D10000FFFF0C00FF
(1665678335.444723) can0 0CF00203#CC0000FFFF0000FF
(1665678335.444956) can0 0CF00400#007D7D000000F07D
(1665678335.449104) can0 18F0090B#1F7D20687DE67D7D
(1665678335.452080) can0 0CF00A01#00000000FFFFFFFF
(1665678335.452521) can0 10F01A01#409CFFFFFFFFFFFF
(1665678335.452769) can0 10FCFD01#FFFFFFFF00000000
(1665678335.452996) can0 18FD9401#6841FFFF00000302
(1665678335.453425) can0 1CFE9201#FFDCADFFFFFFFFFF
(1665678335.454553) can0 0CF00203#CC0000FFFF0000FF
(1665678335.454801) can0 0CF00400#007D7D000000F07D
(1665678335.456259) can0 18FE9601#FFFFFFFFFF00FFFF
(1665678335.457220) can0 0CF0233D#0000FFFFFF0CFFFF
(1665678335.459102) can0 18F0090B#1F7D20687DE67D7D
(1665678335.461453) can0 18FBD600#FFFFFFFFFFFFFFFF
(1665678335.464592) can0 0CF00203#CC0000FFFF0000FF
(1665678335.464808) can0 0CF00400#007D7D000000F07D
(1665678335.465121) can0 18FEDF00#7DFFFFFF7D0000FF
(1665678335.465438) can0 1892FE00#FFFFFFFFFF09FFFF
(1665678335.465740) can0 18F0000F#DF7D7DFF0F7DFF7D
(1665678335.466047) can0 18F00100#FFFFFFFF00FFFFFF
(1665678335.466349) can0 18F00503#7D00007DFFFFFFFF
(1665678335.466494) can0 18FEE000#2700360027003600
(1665678335.466834) can0 18FEF100#FF0000FCFFFF00FF
(1665678335.467134) can0 18FEF200#000000000000FFFF
(1665678335.467385) can0 18FEEF00#00FFFF00FFFFFFFA
(1665678335.469061) can0 18F0090B#1F7D20687DE67D7D
(1665678335.472528) can0 10FF0021#02000000FF3F4D3F
(1665678335.474411) can0 0CF00203#CC0000FFFF0000FF
(1665678335.474674) can0 0CF00400#007D7D000000F07D
(1665678335.476780) can0 18F00E3D#00FB00FBFFFFFFFF
(1665678335.477220) can0 18F00F3D#00FB00FBFFFFFFFF
(1665678335.479065) can0 18F0090B#1F7D20697DE67D7D
(1665678335.480884) can0 18FEF117#FFFFFFFFFFFFFFF0
(1665678335.482896) can0 18FEF121#F7FFFFCFFFFFFFFF
(1665678335.484482) can0 0CF00203#CC0000FFFF0000FF
(1665678335.484730) can0 0CF00400#007D7D000000F07D
(1665678335.485036) can0 18FEF131#CFFFFFF700FFFF3F
(1665678335.489097) can0 18F0090B#1F7D20697DE67D7D
(1665678335.491898) can0 14F00121#FFFFFFFFFFFFFFFF
(1665678335.494369) can0 0CF00300#D10000FFFF0C00FF
(1665678335.494618) can0 0CF00203#CC0000FFFF0000FF
(1665678335.494877) can0 0CF00400#007D7D000000F07D
(1665678335.499093) can0 18F0090B#1F7D206B7DE67D7D
(1665678335.501857) can0 0CF00A01#00000000FFFFFFFF
(1665678335.502259) can0 10F01A01#409CFFFFFFFFFFFF
(1665678335.504525) can0 0CF00203#CC0000FFFF0000FF
(1665678335.504755) can0 0CF00400#007D7D000000F07D
(1665678335.507395) can0 0CF0233D#0000FFFFFF0CFFFF
(1665678335.508874) can0 0C0A0021#FCFFFFFFFFFFFFFF
(1665678335.509195) can0 18F0090B#1F7D206B7DE67D7D
(1665678335.510924) can0 14F0010B#0F00FFFFFF0DFFFF
(1665678335.511912) can0 18FEBF0B#00007D7D7D7DFFFF
(1665678335.512875) can0 14FDC40B#1F085FFFFFFFFFFF
(1665678335.514511) can0 0CF00203#CC0000FFFF0000FF
(1665678335.514803) can0 0CF00400#007D7D000000F07D
(1665678335.515104) can0 14FE4F0B#FF00FFFFFFFFFFFF
(1665678335.515355) can0 18FEDF00#7DFFFFFF7D0000FF
(1665678335.516824) can0 14FEF031#FFFFFFFFFFFFCCFF
(1665678335.518878) can0 14FF07E6#FFFFFFFFFFFFFFFF
(1665678335.519055) can0 18F0090B#1F7D206B7DE67D7D
(1665678335.522617) can0 10FF0021#02000000FF3F4D3F
(1665678335.524534) can0 0CF00203#CC0000FFFF0000FF
(1665678335.524781) can0 0CF00400#007D7D000000F07D
(1665678335.526808) can0 18F00E3D#00FB00FBFFFFFFFF
(1665678335.527078) can0 18F00F3D#00FB00FBFFFFFFFF
(1665678335.528954) can0 14FF0097#FFFFC3E501CECE00
(1665678335.529208) can0 18F0090B#1F7D206B7DE67D7D
(1665678335.534537) can0 0CF00203#CC0000FFFF0000FF
(1665678335.534724) can0 0CF00400#007D7D000000F07D
(1665678335.534992) can0 18F00131#FFFFCFFFFFFFFFFF
(1665678335.539130) can0 18F0090B#1F7D20697DE67D7D
(1665678335.544407) can0 0CF00300#D10000FFFF0C00FF
(1665678335.544696) can0 0CF00203#CC0000FFFF0000FF
(1665678335.544964) can0 0CF00400#007D7D000000F07D
(1665678335.549128) can0 18F0090B#1F7D20697DE67D7D
(1665678335.552073) can0 0CF00A01#00000000FFFFFFFF
(1665678335.552532) can0 10F01A01#409CFFFFFFFFFFFF
(1665678335.552808) can0 10FCFD01#FFFFFFFF00000000
(1665678335.552977) can0 18FD9401#6841FFFF00000302
(1665678335.553456) can0 1CFE9201#FFDCADFFFFFFFFFF
(1665678335.554464) can0 0CF00203#CC0000FFFF0000FF
(1665678335.554687) can0 0CF00400#007D7D000000F07D
(1665678335.556071) can0 18FE9601#FFFFFFFFFF00FFFF
(1665678335.557215) can0 0CF0233D#0000FFFFFF0CFFFF
(1665678335.559106) can0 18F0090B#1F7D20697DE67D7D
(1665678335.561439) can0 18FBD600#FFFFFFFFFFFFFFFF
(1665678335.564583) can0 0CF00203#CC0000FFFF0000FF
(1665678335.564828) can0 0CF00400#007D7D000000F07D
(1665678335.565221) can0 18FEDF00#7DFFFFFF7D0000FF
(1665678335.565351) can0 1892FE00#FFFFFFFFFF09FFFF
(1665678335.565637) can0 18F0000F#DF7D7DFF0F7DFF7D
(1665678335.566020) can0 18F00100#FFFFFFFF00FFFFFF
(1665678335.566266) can0 18F00503#7D00007DFFFFFFFF
(1665678335.566596) can0 18FEE000#2700360027003600
(1665678335.566868) can0 18FEF100#FF0000FCFFFF00FF
(1665678335.567168) can0 18FEF200#000000000000FFFF
(1665678335.569117) can0 18F0090B#1F7D20687DE67D7D
(1665678335.572629) can0 10FF0021#02000000FF3F4D3F
(1665678335.574478) can0 0CF00203#CC0000FFFF0000FF
(1665678335.574767) can0 0CF00400#007D7D000000F07D
(1665678335.576783) can0 18F00E3D#00FB00FBFFFFFFFF
(1665678335.577228) can0 18F00F3D#00FB00FBFFFFFFFF
(1665678335.579047) can0 18F0090B#1F7D20687DE67D7D
(1665678335.580927) can0 18FEF117#FFFFFFFFFFFFFFF0
(1665678335.582919) can0 18FEF121#F7FFFFCFFFFFFFFF
(1665678335.584561) can0 0CF00203#CC0000FFFF0000FF
(1665678335.584809) can0 0CF00400#007D7D000000F07D
(1665678335.585051) can0 18FEF131#CFFFFFF700FFFF3F
(1665678335.589079) can0 18F0090B#1F7D20667DE67D7D
(1665678335.591938) can0 14F00121#FFFFFFFFFFFFFFFF
(1665678335.594403) can0 0CF00300#D10000FFFF0C00FF
(1665678335.594665) can0 0CF00203#CC0000FFFF0000FF
(1665678335.594975) can0 0CF00400#007D7D000000F07D
(1665678335.599133) can0 18F0090B#1F7D20667DE67D7D
(1665678335.601673) can0 0CF00A01#00000000FFFFFFFF
(1665678335.601995) can0 10F01A01#409CFFFFFFFFFFFF
(1665678335.604558) can0 0CF00203#CC0000FFFF0000FF
(1665678335.604866) can0 0CF00400#007D7D000000F07D
(1665678335.607414) can0 0CF0233D#0000FFFFFF0CFFFF
(1665678335.608902) can0 0C0A0021#FCFFFFFFFFFFFFFF
(1665678335.609168) can0 18F0090B#1F7D20667DE67D7D
(1665678335.610900) can0 14F0010B#0F00FFFFFF0DFFFF
(1665678335.611731) can0 18FEBF0B#00007D7D7D7DFFFF
(1665678335.612846) can0 14FDC40B#1F085FFFFFFFFFFF
(1665678335.614524) can0 0CF00203#CC0000FFFF0000FF
(1665678335.614778) can0 0CF00400#007D7D000000F07D
(1665678335.615100) can0 14FE4F0B#FF00FFFFFFFFFFFF
(1665678335.615355) can0 18FEDF00#7DFFFFFF7D0000FF
(1665678335.616887) can0 14FEF031#FFFFFFFFFFFFCCFF
(1665678335.618880) can0 14FF07E6#FFFFFFFFFFFFFFFF
(1665678335.619224) can0 18F0090B#1F7D20667DE67D7D
(1665678335.620972) can0 14FF08E6#FFFFFFFFFFFFFFFF
(1665678335.622590) can0 10FF0021#02000000FF3F4D3F
(1665678335.624563) can0 0CF00203#CC0000FFFF0000FF
(1665678335.624732) can0 0CF00400#007D7D000000F07D
(1665678335.626853) can0 18F00E3D#00FB00FBFFFFFFFF
(1665678335.627087) can0 18F00F3D#00FB00FBFFFFFFFF
(1665678335.628371) can0 18FD8C3D#00001100FFFFFFFF
(1665678335.628817) can0 18FDB23D#0000462500000000
(1665678335.629102) can0 18F0090B#1F7D20667DE67D7D
(1665678335.629919) can0 18FBF53D#FFFFFFFF0000FFFF
(1665678335.630409) can0 14FF0097#FFFFC3E501CECE00
(1665678335.634503) can0 0CF00203#CC0000FFFF0000FF
(1665678335.634704) can0 0CF00400#007D7D000000F07D
(1665678335.635013) can0 18F00131#FFFFCFFFFFFFFFFF
(1665678335.639107) can0 18F0090B#1F7D20687DE67D7D
(1665678335.644420) can0 0CF00300#D10000FFFF0C00FF
(1665678335.644827) can0 0CF00203#CC0000FFFF0000FF
(1665678335.644951) can0 0CF00400#007D7D000000F07D
(1665678335.649120) can0 18F0090B#1F7D20687DE67D7D
(1665678335.652152) can0 0CF00A01#00000000FFFFFFFF
(1665678335.652581) can0 10F01A01#409CFFFFFFFFFFFF
(1665678335.652822) can0 10FCFD01#FFFFFFFF00000000
(1665678335.653037) can0 18FD9401#6841FFFF00000302
(1665678335.653498) can0 1CFE9201#FFDCADFFFFFFFFFF
(1665678335.654573) can0 0CF00203#CC0000FFFF0000FF
(1665678335.654826) can0 0CF00400#007D7D000000F07D
(1665678335.656190) can0 18FE9601#FFFFFFFFFF00FFFF
(1665678335.656940) can0 18FD6501#DD01FFFFFFFFFFFF
(1665678335.657352) can0 0CF0233D#0000FFFFFF0CFFFF
(1665678335.657489) can0 18FD413D#FFFFFFFFFCFCFCFC
(1665678335.657813) can0 18FDA101#B303FFFFFFFF00FF
(1665678335.658029) can0 18FDAA01#FFFFFFFFFFFFFFFF
(1665678335.658349) can0 18FDD001#FFFFFF0030FFFFFF
(1665678335.658660) can0 18FEDB01#4601460146014601
(1665678335.658880) can0 18F0090B#1F7D20697DE67D7D
(1665678335.661309) can0 18FBD600#FFFFFFFFFFFFFFFF
(1665678335.664454) can0 0CF00203#CC0000FFFF0000FF
(1665678335.664763) can0 0CF00400#007D7D000000F07D
(1665678335.665059) can0 18FEDF00#7DFFFFFF7D0000FF
(1665678335.665414) can0 1892FE00#FFFFFFFFFF09FFFF
(1665678335.665606) can0 18F0000F#DF7D7DFF0F7DFF7D
(1665678335.665941) can0 18F00100#FFFFFFFF00FFFFFF
(1665678335.666237) can0 18F00503#7D00007DFFFFFFFF
(1665678335.666512) can0 18FEE000#2700360027003600
(1665678335.666826) can0 18FEF100#FF0000FCFFFF00FF
(1665678335.667160) can0 18FEF200#000000000000FFFF
(1665678335.668971) can0 18F0090B#1F7D20697DE67D7D
(1665678335.672432) can0 10FF0021#02000000FF3F4D3F
(1665678335.674418) can0 0CF00203#CC0000FFFF0000FF
(1665678335.674657) can0 0CF00400#007D7D000000F07D
(1665678335.676693) can0 18F00E3D#00FB00FBFFFFFFFF
(1665678335.677127) can0 18F00F3D#00FB00FBFFFFFFFF
(1665678335.677406) can0 18FD3E00#FFFFFF4325FFFFFF
(1665678335.678997) can0 18F0090B#1F7D20697DE67D7D
(1665678335.680771) can0 18FEF117#FFFFFFFFFFFFFFF0
(1665678335.682705) can0 18FEF121#F7FFFFCFFFFFFFFF
(1665678335.684383) can0 0CF00203#CC0000FFFF0000FF
(1665678335.684673) can0 0CF00400#007D7D000000F07D
(1665678335.684949) can0 18FEF131#CFFFFFF700FFFF3F
(1665678335.688962) can0 18F0090B#1F7D20697DE67D7D
(1665678335.691772) can0 14F00121#FFFFFFFFFFFFFFFF
(1665678335.694430) can0 0CF00300#D10000FFFF0C00FF
(1665678335.694654) can0 0CF00203#CC0000FFFF0000FF
(1665678335.694950) can0 0CF00400#007D7D000000F07D
(1665678335.699134) can0 18F0090B#1F7D20687DE67D7D
(1665678335.701896) can0 0CF00A01#00000000FFFFFFFF
(1665678335.702275) can0 10F01A01#409CFFFFFFFFFFFF
(1665678335.704549) can0 0CF00203#CC0000FFFF0000FF
(1665678335.704854) can0 0CF00400#007D7D000000F07D
(1665678335.707406) can0 0CF0233D#0000FFFFFF0CFFFF
(1665678335.708909) can0 0C0A0021#FCFFFFFFFFFFFFFF
(1665678335.709206) can0 18F0090B#1F7D20687DE67D7D
(1665678335.710967) can0 14F0010B#0F00FFFFFF0DFFFF
(1665678335.711761) can0 18FEBF0B#00007D7D7D7DFFFF
(1665678335.712882) can0 14FDC40B#1F085FFFFFFFFFFF
(1665678335.714534) can0 0CF00203#CC0000FFFF0000FF
(1665678335.714799) can0 0CF00400#007D7D000000F07D
(1665678335.715094) can0 14FE4F0B#FF00FFFFFFFFFFFF
(1665678335.715390) can0 18FEDF00#7DFFFFFF7D0000FF
(1665678335.716905) can0 14FEF031#FFFFFFFFFFFFCCFF
(1665678335.718887) can0 14FF07E6#FFFFFFFFFFFFFFFF
(1665678335.719137) can0 18F0090B#1F7D20687DE67D7D
(1665678335.722603) can0 10FF0021#02000000FF3F4D3F
(1665678335.724529) can0 0CF00203#CC0000FFFF0000FF
(1665678335.724780) can0 0CF00400#007D7D000000F07D
(1665678335.726829) can0 18F00E3D#00FB00FBFFFFFFFF
(1665678335.727071) can0 18F00F3D#00FB00FBFFFFFFFF
(1665678335.729079) can0 18F0090B#1F7D20687DE67D7D
(1665678335.731351) can0 14FF0097#FFFFC3E501CECE00
(1665678335.734527) can0 0CF00203#CC0000FFFF0000FF
(1665678335.734786) can0 0CF00400#007D7D000000F07D
(1665678335.735025) can0 18F00131#FFFFCFFFFFFFFFFF
(1665678335.739155) can0 18F0090B#1F7D20687DE67D7D
(1665678335.744426) can0 0CF00300#D10000FFFF0C00FF
(1665678335.744769) can0 0CF00203#CC0000FFFF0000FF
(1665678335.744977) can0 0CF00400#007D7D000000F07D
(1665678335.749134) can0 18F0090B#1F7D20687DE67D7D
(1665678335.752158) can0 0CF00A01#00000000FFFFFFFF
(1665678335.752467) can0 10F01A01#409CFFFFFFFFFFFF
(1665678335.752753) can0 10FCFD01#FFFFFFFF00000000
(1665678335.752989) can0 18FD9401#6841FFFF00000302
(1665678335.753353) can0 1CFE9201#FFDCADFFFFFFFFFF
(1665678335.754574) can0 0CF00203#CC0000FFFF0000FF
(1665678335.754834) can0 0CF00400#007D7D000000F07D
(1665678335.756213) can0 18FE9601#FFFFFFFFFF00FFFF
(1665678335.757245) can0 0CF0233D#0000FFFFFF0CFFFF
(1665678335.759035) can0 18F0090B#1F7D20697DE67D7D
(1665678335.761450) can0 18FBD600#FFFFFFFFFFFFFFFF
(1665678335.764545) can0 0CF00203#CC0000FFFF0000FF
(1665678335.764810) can0 0CF00400#007D7D000000F07D
(1665678335.765241) can0 18FEDF00#7DFFFFFF7D0000FF
(1665678335.765444) can0 1892FE00#FFFFFFFFFF09FFFF
(1665678335.765788) can0 18F0000F#DF7D7DFF0F7DFF7D
(1665678335.766057) can0 18F00100#FFFFFFFF00FFFFFF
(1665678335.766406) can0 18F00503#7D00007DFFFFFFFF
(1665678335.766590) can0 18FEE000#2700360027003600
(1665678335.766926) can0 18FEF100#FF0000FCFFFF00FF
(1665678335.767205) can0 18FEF200#000000000000FFFF
(1665678335.769101) can0 18F0090B#1F7D20697DE67D7D
(1665678335.772606) can0 10FF0021#02000000FF3F4D3F
(1665678335.774531) can0 0CF00203#CC0000FFFF0000FF
(1665678335.774796) can0 0CF00400#007D7D000000F07D
(1665678335.776839) can0 18F00E3D#00FB00FBFFFFFFFF
(1665678335.777350) can0 18F00F3D#00FB00FBFFFFFFFF
(1665678335.777536) can0 18FD203D#46254625FFFFFFFF
(1665678335.779410) can0 18F0090B#1F7D20687DE67D7D
(1665678335.780919) can0 18FEF117#FFFFFFFFFFFFFFF0
(1665678335.782949) can0 18FEF121#F7FFFFCFFFFFFFFF
(1665678335.784565) can0 0CF00203#CC0000FFFF0000FF
(1665678335.784778) can0 0CF00400#007D7D000000F07D
(1665678335.785106) can0 18FEF131#CFFFFFF700FFFF3F
(1665678335.789136) can0 18F0090B#1F7D20687DE67D7D
(1665678335.791899) can0 14F00121#FFFFFFFFFFFFFFFF
(1665678335.792137) can0 10FECA25#00FF00000000FFFF
(1665678335.794444) can0 0CF00300#D10000FFFF0C00FF
(1665678335.794672) can0 0CF00203#CC0000FFFF0000FF
(1665678335.794974) can0 0CF00400#007D7D000000F07D
(1665678335.799136) can0 18F0090B#1F7D20687DE67D7D
(1665678335.801647) can0 0CF00A01#00000000FFFFFFFF
(1665678335.802102) can0 10F01A01#409CFFFFFFFFFFFF
(1665678335.804530) can0 0CF00203#CC0000FFFF0000FF
(1665678335.804801) can0 0CF00400#007D7D000000F07D
(1665678335.807404) can0 0CF0233D#0000FFFFFF0CFFFF
(1665678335.808898) can0 0C0A0021#FCFFFFFFFFFFFFFF
(1665678335.809051) can0 18F0090B#1F7D20687DE67D7D
(1665678335.810911) can0 14F0010B#0F00FFFFFF0DFFFF
(1665678335.811781) can0 18FEBF0B#00007D7D7D7DFFFF
(1665678335.812878) can0 14FDC40B#1F085FFFFFFFFFFF
(1665678335.814558) can0 0CF00203#CC0000FFFF0000FF
(1665678335.814780) can0 0CF00400#007D7D000000F07D
(1665678335.815075) can0 14FE4F0B#FF00FFFFFFFFFFFF
(1665678335.815436) can0 18FEDF00#7DFFFFFF7D0000FF
(1665678335.816891) can0 14FEF031#FFFFFFFFFFFFCCFF
(1665678335.818925) can0 14FF07E6#FFFFFFFFFFFFFFFF
(1665678335.819159) can0 18F0090B#1F7D20687DE67D7D
(1665678335.822562) can0 10FF0021#02000000FF3F4D3F
(1665678335.823774) can0 18FF0421#FFFFFFFFFFFB73DC
(1665678335.824611) can0 0CF00203#CC0000FFFF0000FF
(1665678335.824823) can0 0CF00400#007D7D000000F07D
(1665678335.826855) can0 18F00E3D#00FB00FBFFFFFFFF
(1665678335.827099) can0 18F00F3D#00FB00FBFFFFFFFF
(1665678335.829149) can0 18F0090B#1F7D20697DE67D7D
(1665678335.831723) can0 14FF0097#FFFFC3E501CECE00
(1665678335.834500) can0 0CF00203#CC0000FFFF0000FF
(1665678335.834818) can0 0CF00400#007D7D000000F07D
(1665678335.835094) can0 18F00131#FFFFCFFFFFFFFFFF
(1665678335.839128) can0 18F0090B#1F7D20697DE67D7D
(1665678335.844395) can0 0CF00300#D10000FFFF0C00FF
(1665678335.844684) can0 0CF00203#CC0000FFFF0000FF
(1665678335.844975) can0 0CF00400#007D7D000000F07D
(1665678335.849146) can0 18F0090B#1F7D206B7DE67D7D
(1665678335.852124) can0 0CF00A01#00000000FFFFFFFF
(1665678335.852556) can0 10F01A01#409CFFFFFFFFFFFF
(1665678335.852789) can0 10FCFD01#FFFFFFFF00000000
(1665678335.853009) can0 18FD9401#6841FFFF00000302
(1665678335.853452) can0 1CFE9201#FFDCADFFFFFFFFFF
(1665678335.854549) can0 0CF00203#CC0000FFFF0000FF
(1665678335.854702) can0 0CF00400#007D7D000000F07D
(1665678335.856127) can0 18FE9601#FFFFFFFFFF00FFFF
(1665678335.857212) can0 0CF0233D#0000FFFFFF0CFFFF
(1665678335.859137) can0 18F0090B#1F7D206B7DE67D7D
(1665678335.861460) can0 18FBD600#FFFFFFFFFFFFFFFF
(1665678335.864604) can0 0CF00203#CC0000FFFF0000FF
(1665678335.864860) can0 0CF00400#007D7D000000F07D
(1665678335.865199) can0 18FEDF00#7DFFFFFF7D0000FF
(1665678335.865428) can0 1892FE00#FFFFFFFFFF09FFFF
(1665678335.865709) can0 18F0000F#DF7D7DFF0F7DFF7D
(1665678335.865900) can0 18F00100#FFFFFFFF00FFFFFF
(1665678335.866248) can0 18F00503#7D00007DFFFFFFFF
(1665678335.866551) can0 18FEE000#2700360027003600
(1665678335.866829) can0 18FEF100#FF0000FCFFFF00FF
(1665678335.867077) can0 18FEF200#000000000000FFFF
(1665678335.869124) can0 18F0090B#1F7D206B7DE67D7D
(1665678335.872604) can0 10FF0021#02000000FF3F4D3F
(1665678335.874515) can0 0CF00203#CC0000FFFF0000FF
(1665678335.874651) can0 0CF00400#007D7D000000F07D
(1665678335.876832) can0 18F00E3D#00FB00FBFFFFFFFF
(1665678335.877316) can0 18F00F3D#00FB00FBFFFFFFFF
(1665678335.879040) can0 18FFC025#430CFF4050F0FFFF
(1665678335.879077) can0 18F0090B#1F7D206B7DE67D7D
(1665678335.880926) can0 18FEF117#FFFFFFFFFFFFFFF0
(1665678335.882908) can0 18FEF121#F7FFFFCFFFFFFFFF
(1665678335.884586) can0 0CF00203#CC0000FFFF0000FF
(1665678335.884780) can0 0CF00400#007D7D000000F07D
(1665678335.885057) can0 18FEF131#CFFFFFF700FFFF3F
(1665678335.885339) can0 18FFC125#FFFC5AC000000000
(1665678335.889133) can0 18F0090B#1F7D206B7DE67D7D
(1665678335.891201) can0 18FFC225#00102F012F015700
(1665678335.891499) can0 18FD0517#7FFFFFFFFFFFFFFF
(1665678335.891901) can0 14F00121#FFFFFFFFFFFFFFFF
(1665678335.894445) can0 0CF00300#D10000FFFF0C00FF
(1665678335.894684) can0 0CF00203#CC0000FFFF0000FF
(1665678335.894934) can0 0CF00400#007D7D000000F07D
(1665678335.897049) can0 18FFC325#2541F350200041C0
(1665678335.899115) can0 18F0090B#1F7D20697DE67D7D
(1665678335.901894) can0 0CF00A01#00000000FFFFFFFF
(1665678335.902293) can0 10F01A01#409CFFFFFFFFFFFF
(1665678335.902491) can0 18FF0817#000C0000FFFFFFFF
(1665678335.903027) can0 18FFC425#13D413D4F0FFF0FF
(1665678335.904503) can0 0CF00203#CC0000FFFF0000FF
(1665678335.904755) can0 0CF00400#007D7D000000F07D
(1665678335.907401) can0 0CF0233D#0000FFFFFF0CFFFF
(1665678335.908906) can0 0C0A0021#FCFFFFFFFFFFFFFF
(1665678335.909124) can0 18F0090B#1F7D20697DE67D7D
(1665678335.909407) can0 18FFC725#4300FCFFFFFFFFFF
(1665678335.910936) can0 14F0010B#0F00FFFFFF0DFFFF
(1665678335.912033) can0 18FEBF0B#00007D7D7D7DFFFF
(1665678335.912896) can0 14FDC40B#1F085FFFFFFFFFFF
(1665678335.914507) can0 0CF00203#CC0000FFFF0000FF
(1665678335.914848) can0 0CF00400#007D7D000000F07D
(1665678335.914952) can0 14FE4F0B#FF00FFFFFFFFFFFF
(1665678335.915315) can0 18FEDF00#7DFFFFFF7D0000FF
(1665678335.915486) can0 18FFC525#0105151401440011
(1665678335.916819) can0 14FEF031#FFFFFFFFFFFFCCFF
(1665678335.918894) can0 14FF07E6#FFFFFFFFFFFFFFFF
(1665678335.919117) can0 18F0090B#1F7D20687DE67D7D
(1665678335.921070) can0 18FFC625#1040000000002017
(1665678335.922620) can0 10FF0021#02000000FF3F4D3F
(1665678335.923638) can0 18FFFE4C#1F946F01FF510000
(1665678335.924374) can0 18FDB300#FFFF4625FFFFFFFF
(1665678335.924611) can0 0CF00203#CC0000FFFF0000FF
(1665678335.925051) can0 0CF00400#007D7D000000F07D
(1665678335.925264) can0 18FDB43D#46254625FFFFFFFF
(1665678335.925576) can0 18FEF600#FF004130FFFFFFFF
(1665678335.926856) can0 18F00E3D#00FB00FBFFFFFFFF
(1665678335.927121) can0 18FFC925#000000000000F0FF
(1665678335.927313) can0 18F00F3D#00FB00FBFFFFFFFF
(1665678335.929140) can0 18F0090B#1F7D20687DE67D7D
(1665678335.931480) can0 18FE700B#FFFFFFFFFFFFFFFF
(1665678335.932706) can0 14FF0097#FFFFC3E501CECE00
(1665678335.932945) can0 18FFCA25#02465E5E401F1C25
(1665678335.934547) can0 0CF00203#CC0000FFFF0000FF
(1665678335.934793) can0 0CF00400#007D7D000000F07D
(1665678335.935052) can0 18F00131#FFFFCFFFFFFFFFFF
(1665678335.939070) can0 18F0090B#1F7D20687DE67D7D
(1665678335.944449) can0 0CF00300#D10000FFFF0C00FF
(1665678335.944755) can0 0CF00203#CC0000FFFF0000FF
(1665678335.945017) can0 0CF00400#007D7D000000F07D
(1665678335.949095) can0 18F0090B#1F7D20687DE67D7D
(1665678335.952143) can0 0CF00A01#00000000FFFFFFFF
(1665678335.952606) can0 10F01A01#409CFFFFFFFFFFFF
(1665678335.952800) can0 10FCFD01#FFFFFFFF00000000
(1665678335.953020) can0 18FD9401#6841FFFF00000302
(1665678335.953489) can0 1CFE9201#FFDCADFFFFFFFFFF
(1665678335.954488) can0 0CF00203#CC0000FFFF0000FF
(1665678335.954733) can0 0CF00400#007D7D000000F07D
(1665678335.955058) can0 18FECA00#03FF00000000FFFF
(1665678335.956290) can0 18FE9601#FFFFFFFFFF00FFFF
(1665678335.957348) can0 0CF0233D#0000FFFFFF0CFFFF
(1665678335.959093) can0 18F0090B#1F7D20687DE67D7D
(1665678335.961430) can0 18FBD600#FFFFFFFFFFFFFFFF
(1665678335.964613) can0 0CF00203#CC0000FFFF0000FF
(1665678335.964872) can0 0CF00400#007D7D000000F07D
(1665678335.965452) can0 18FEDF00#7DFFFFFF7D0000FF
(1665678335.965456) can0 1892FE00#FFFFFFFFFF09FFFF
(1665678335.965653) can0 18F0000F#DF7D7DFF0F7DFF7D
(1665678335.965919) can0 18F00100#FFFFFFFF00FFFFFF
(1665678335.966256) can0 18F00503#7D00007DFFFFFFFF
(1665678335.966543) can0 18FEE000#2700360027003600
(1665678335.966925) can0 18FEF100#FF0000FCFFFF00FF
(1665678335.967267) can0 18FEF200#000000000000FFFF
(1665678335.967384) can0 18FEEF00#00FFFF00FFFFFFFA
(1665678335.967725) can0 18FD0900#0000000033B70709
(1665678335.968082) can0 18FDE000#FFFFFFFFFFFFFFFF
(1665678335.968493) can0 18FEC100#D2034605D2034605
(1665678335.968742) can0 18FEE400#FF7FFFFFFFFFFFFF
(1665678335.968940) can0 18F0090B#1F7D20687DE67D7D
(1665678335.969278) can0 18FEF500#C3FFFFF424FFFFFF
(1665678335.969541) can0 18FEF700#FFFFFFFFFD00FFFF
(1665678335.969752) can0 18FF7400#5D00FFFFFFCFFFFF
(1665678335.972344) can0 10FF0021#02000000FF3F4D3F
(1665678335.974329) can0 0CF00203#CC0000FFFF0000FF
(1665678335.974610) can0 0CF00400#007D7D000000F07D
(1665678335.976795) can0 18F00E3D#00FB00FBFFFFFFFF
(1665678335.977224) can0 18F00F3D#00FB00FBFFFFFFFF
(1665678335.978969) can0 18F0090B#1F7D20687DE67D7D
(1665678335.980843) can0 18FEF117#FFFFFFFFFFFFFFF0
(1665678335.982853) can0 18FEF121#F7FFFFCFFFFFFFFF
(1665678335.984436) can0 0CF00203#CC0000FFFF0000FF
(1665678335.984712) can0 0CF00400#007D7D000000F07D
(1665678335.985064) can0 18FEF131#CFFFFFF700FFFF3F
(1665678335.989039) can0 18F0090B#1F7D20697DE67D7D
(1665678335.991841) can0 14F00121#FFFFFFFFFFFFFFFF
(1665678335.994433) can0 0CF00300#D10000FFFF0C00FF
(1665678335.994620) can0 0CF00203#CC0000FFFF0000FF
(1665678335.994856) can0 0CF00400#007D7D000000F07D
(1665678335.999020) can0 18F0090B#1F7D20697DE67D7D
(1665678336.001503) can0 0CF00A01#00000000FFFFFFFF
(1665678336.001965) can0 10F01A01#409CFFFFFFFFFFFF
(1665678336.004444) can0 0CF00203#CC0000FFFF0000FF
(1665678336.004685) can0 0CF00400#007D7D000000F07D
(1665678336.007279) can0 0CF0233D#0000FFFFFF0CFFFF
(1665678336.008757) can0 0C0A0021#FCFFFFFFFFFFFFFF
(1665678336.009125) can0 18F0090B#1F7D206B7DE67D7D
(1665678336.010827) can0 14F0010B#0F00FFFFFF0DFFFF
(1665678336.011927) can0 18FEBF0B#00007D7D7D7DFFFF
(1665678336.012863) can0 14FDC40B#1F085FFFFFFFFFFF
(1665678336.014491) can0 0CF00203#CC0000FFFF0000FF
(1665678336.014753) can0 0CF00400#007D7D000000F07D
(1665678336.015048) can0 14FE4F0B#FF00FFFFFFFFFFFF
(1665678336.015345) can0 18FEDF00#7DFFFFFF7D0000FF
(1665678336.016745) can0 14FEF031#FFFFFFFFFFFFCCFF
(1665678336.018757) can0 14FF07E6#FFFFFFFFFFFFFFFF
(1665678336.019012) can0 18F0090B#1F7D206B7DE67D7D
(1665678336.021458) can0 1CDE0317#F0FFFFFFFFFFFFFF
(1665678336.022509) can0 10FF0021#02000000FF3F4D3F
(1665678336.024465) can0 0CF00203#CC0000FFFF0000FF
(1665678336.024689) can0 0CF00400#007D7D000000F07D
(1665678336.026769) can0 18F00E3D#00FB00FBFFFFFFFF
(1665678336.027040) can0 18F00F3D#00FB00FBFFFFFFFF
(1665678336.029042) can0 18F0090B#1F7D206B7DE67D7D
(1665678336.033666) can0 14FF0097#FFFFC3E501CECE00
(1665678336.034491) can0 0CF00203#CC0000FFFF0000FF
(1665678336.034650) can0 0CF00400#007D7D000000F07D
(1665678336.034946) can0 18F00131#FFFFCFFFFFFFFFFF
(1665678336.039032) can0 18F0090B#1F7D206B7DE67D7D
(1665678336.044378) can0 0CF00300#D10000FFFF0C00FF
(1665678336.044658) can0 0CF00203#CC0000FFFF0000FF
(1665678336.044994) can0 0CF00400#007D7D000000F07D
(1665678336.049157) can0 18F0090B#1F7D206B7DE67D7D
(1665678336.052183) can0 0CF00A01#00000000FFFFFFFF
(1665678336.052573) can0 10F01A01#409CFFFFFFFFFFFF
(1665678336.052878) can0 10FCFD01#FFFFFFFF00000000
(1665678336.053035) can0 18FD9401#6841FFFF00000302
(1665678336.053339) can0 1CFE9201#FFDCADFFFFFFFFFF
(1665678336.054500) can0 0CF00203#CC0000FFFF0000FF
(1665678336.054785) can0 0CF00400#007D7D000000F07D
(1665678336.056254) can0 18FE9601#FFFFFFFFFF00FFFF
(1665678336.057357) can0 0CF0233D#0000FFFFFF0CFFFF
(1665678336.057577) can0 18FF0097#464D2039342E3120
(1665678336.059049) can0 18F0090B#1F7D206B7DE67D7D
(1665678336.061464) can0 18FBD600#FFFFFFFFFFFFFFFF
(1665678336.064581) can0 0CF00203#CC0000FFFF0000FF
(1665678336.064827) can0 0CF00400#007D7D000000F07D
(1665678336.065105) can0 18FEDF00#7DFFFFFF7D0000FF
(1665678336.065418) can0 1892FE00#FFFFFFFFFF09FFFF
(1665678336.065723) can0 18F0000F#DF7D7DFF0F7DFF7D
(1665678336.066005) can0 18F00100#FFFFFFFF00FFFFFF
(1665678336.066306) can0 18F00503#7D00007DFFFFFFFF
(1665678336.066488) can0 18FEE000#2700360027003600
(1665678336.066747) can0 18FEF100#FF0000FCFFFF00FF
(1665678336.067121) can0 18FEF200#000000000000FFFF
(1665678336.069055) can0 18F0090B#1F7D206B7DE67D7D
(1665678336.072533) can0 10FF0021#02000000FF3F4D3F
(1665678336.074466) can0 0CF00203#CC0000FFFF0000FF
(1665678336.074647) can0 0CF00400#007D7D000000F07D
(1665678336.076800) can0 18F00E3D#00FB00FBFFFFFFFF
(1665678336.077093) can0 18F00F3D#00FB00FBFFFFFFFF
(1665678336.079062) can0 18F0090B#1F7D206B7DE67D7D
(1665678336.080837) can0 18FEF117#FFFFFFFFFFFFFFF0
(1665678336.082891) can0 18FEF121#F7FFFFCFFFFFFFFF
(1665678336.084465) can0 0CF00203#CC0000FFFF0000FF
(1665678336.084721) can0 0CF00400#007D7D000000F07D
(1665678336.085019) can0 18FEF131#CFFFFFF700FFFF3F
(1665678336.089026) can0 18F0090B#1F7D206B7DFA7D7D
(1665678336.091846) can0 14F00121#FFFFFFFFFFFFFFFF
(1665678336.094467) can0 0CF00300#D10000FFFF0C00FF
(1665678336.094649) can0 0CF00203#CC0000FFFF0000FF
(1665678336.094957) can0 1CECFF0F#20130003FFE1FE00
(1665678336.095202) can0 0CF00400#007D7D000000F07D
(1665678336.095545) can0 18FD0900#0000000033B70709
(1665678336.095761) can0 18FD7C00#FF80C13030FF1FFF
(1665678336.096278) can0 18FECA03#03FF00000000FFFF
(1665678336.096490) can0 18FECA11#03FF00000000FFFF
(1665678336.096745) can0 18FCDC00#FFFFFFFFFFFFFFFF
(1665678336.098998) can0 18F0090B#1F7D206B7DFA7D7D
(1665678336.101806) can0 0CF00A01#00000000FFFFFFFF
(1665678336.102261) can0 10F01A01#409CFFFFFFFFFFFF
(1665678336.104565) can0 0CF00203#CC0000FFFF0000FF
(1665678336.104778) can0 1CECFF00#20270006FFE3FE00
(1665678336.105137) can0 0CF00400#007D7D000000F07D
(1665678336.107437) can0 0CF0233D#0000FFFFFF0CFFFF
(1665678336.108925) can0 0C0A0021#FCFFFFFFFFFFFFFF
(1665678336.109162) can0 18F0090B#1F7D206B7DFA7D7D
(1665678336.110939) can0 14F0010B#0F00FFFFFF0DFFFF
(1665678336.111648) can0 18FEBF0B#00007D7D7D7DFFFF
(1665678336.112902) can0 14FDC40B#1F085FFFFFFFFFFF
(1665678336.114552) can0 0CF00203#CC0000FFFF0000FF
(1665678336.114724) can0 0CF00400#007D7D000000F07D
(1665678336.115014) can0 14FE4F0B#FF00FFFFFFFFFFFF
(1665678336.115339) can0 18FEDF00#7DFFFFFF7D0000FF
(1665678336.116888) can0 14FEF031#FFFFFFFFFFFFCCFF
(1665678336.118923) can0 14FF07E6#FFFFFFFFFFFFFFFF
(1665678336.119150) can0 18F0090B#1F7D206B7DFA7D7D
(1665678336.120910) can0 14FF08E6#FFFFFFFFFFFFFFFF
(1665678336.122593) can0 10FF0021#02000000FF3F4D3F
(1665678336.122803) can0 18E00017#FFFFFFFFFFF0FFFF
(1665678336.124534) can0 0CF00203#CC0000FFFF0000FF
(1665678336.124828) can0 0CF00400#007D7D000000F07D
(1665678336.125075) can0 18E00019#00FFFFFCFFFFFFFF
(1665678336.126708) can0 18F00E3D#00FB00FBFFFFFFFF
(1665678336.126936) can0 18E00031#FFFFFFFFFFFFFFFF
(1665678336.127177) can0 18F00F3D#00FB00FBFFFFFFFF
(1665678336.127467) can0 18FECA3D#43FF900C1504FFFF
(1665678336.128668) can0 18FD8C3D#00001100FFFFFFFF
(1665678336.128930) can0 18E0FF21#FFFFFFFFFFFFFFFF
(1665678336.129245) can0 18FDB23D#0000462500000000
(1665678336.129504) can0 18F0090B#1F7D206B7DFA7D7D
(1665678336.129777) can0 18FFA63D#00FF00000000FFFF
(1665678336.132521) can0 18FBF53D#FFFFFFFF0000FFFF
(1665678336.134384) can0 0CF00203#CC0000FFFF0000FF
(1665678336.134585) can0 0CF00400#007D7D000000F07D
(1665678336.134899) can0 14FF0097#FFFFC3E501CECE00
(1665678336.135149) can0 18F00131#FFFFCFFFFFFFFFFF
(1665678336.138783) can0 18FECA0B#C0FF00000000FFFF
(1665678336.138968) can0 18F0090B#1F7D206B7DE67D7D
(1665678336.140765) can0 18FECA13#00FF0000007FFFFF
(1665678336.142754) can0 18FECA17#00FF00000000FFFF
(1665678336.144302) can0 0CF00300#D10000FFFF0C00FF
(1665678336.144566) can0 0CF00203#CC0000FFFF0000FF
(1665678336.144746) can0 18FECA19#00FF0000007FFFFF
(1665678336.145097) can0 0CF00400#007D7D000000F07D
(1665678336.146660) can0 18FECA21#00FF0000007FFFFF
(1665678336.148745) can0 18FECA2A#00FF0000007FFFFF
(1665678336.149014) can0 18F0090B#1F7D206B7DE67D7D
(1665678336.150761) can0 18FECA3A#00FF0000007FFFFF
(1665678336.151997) can0 0CF00A01#00000000FFFFFFFF
(1665678336.152400) can0 10F01A01#409CFFFFFFFFFFFF
(1665678336.152672) can0 18FECA01#43FF7F020E02FFFF
(1665678336.152930) can0 10FCFD01#FFFFFFFF00000000
(1665678336.153284) can0 18FECA45#00FF0000007FFFFF
(1665678336.153560) can0 18FD9401#6841FFFF00000302
(1665678336.153828) can0 1CFE9201#FFDCADFFFFFFFFFF
(1665678336.154436) can0 0CF00203#CC0000FFFF0000FF
(1665678336.154729) can0 1CEBFF0F#010300FFFFFFFFFF
(1665678336.154917) can0 18FECA4A#00FF0000007FFFFF
(1665678336.155224) can0 0CF00400#007D7D000000F07D
(1665678336.156539) can0 18FE9601#FFFFFFFFFF00FFFF
(1665678336.156728) can0 18FECA7F#00FF0000007FFFFF
(1665678336.157077) can0 0CF0233D#0000FFFFFF0CFFFF
(1665678336.157382) can0 18FD413D#FFFFFFFFFCFCFCFC
(1665678336.158187) can0 18FD6501#DD01FFFFFFFFFFFF
(1665678336.158601) can0 18FDA101#B303FFFFFFFF00FF
(1665678336.158874) can0 18FECA85#00FF0000007FFFFF
(1665678336.159176) can0 18FDAA01#FFFFFFFFFFFFFFFF
(1665678336.159560) can0 18F0090B#1F7D20697DE67D7D
(1665678336.159741) can0 18FDD001#FFFFFF0030FFFFFF
(1665678336.160429) can0 18FEDB01#7601760176017601
(1665678336.160827) can0 18FECAE8#00FF00000000FFFF
(1665678336.161942) can0 18FD6601#FF3DFFFFFFFFFFFF
(1665678336.162203) can0 18FE6901#4725E424FFFF2525
(1665678336.162461) can0 18FE9701#FFFFFFFFFFFFFFFF
(1665678336.162810) can0 18FE9801#6027FFFFFFFFFFFF
(1665678336.163081) can0 18FECAEC#00FF0000007FFFFF
(1665678336.163367) can0 18FE9901#FFFFFFFFFFFFFFFF
(1665678336.163583) can0 18FE9A01#3825FFFFFFFFFFFF
(1665678336.163877) can0 18FEDD01#FF0000FFFFFFFFFF
(1665678336.164501) can0 0CF00203#CC0000FFFF0000FF
(1665678336.164761) can0 18FECAED#00FF0000007FFFFF
(1665678336.164977) can0 0CF00400#007D7D000000F07D
(1665678336.165315) can0 18FEDF00#7DFFFFFF7D0000FF
(1665678336.165612) can0 1892FE00#FFFFFFFFFF09FFFF
(1665678336.165892) can0 18F0000F#DF7D7DFF0F7DFF7D
(1665678336.166228) can0 18F00100#FFFFFFFF00FFFFFF
(1665678336.166501) can0 18F00503#7D00007DFFFFFFFF
(1665678336.166816) can0 18FEE000#2700360027003600
(1665678336.167085) can0 18FEF100#FF0000FCFFFF00FF
(1665678336.167433) can0 18FEF200#000000000000FFFF
(1665678336.167704) can0 18FE5600#F93CFFFF1F1FFFFF
(1665678336.168001) can0 18FFA53D#FFFF511B43254325
(1665678336.168314) can0 18FDD301#FFFFFFFFFFFFFFFF
(1665678336.168578) can0 18FFAA01#0000EC05F27C6564
(1665678336.168900) can0 18FEE419#FFFFFCFFFFFFFFFF
(1665678336.169145) can0 18FEA400#FFFF5525FA7CFFFF
(1665678336.169478) can0 18F0090B#1F7D20697DE67D7D
(1665678336.169705) can0 18FEEE00#3E3DD424FFFF40FF
(1665678336.170040) can0 18FFAB01#2D1706007DFA6810
(1665678336.170333) can0 18FFAC01#000000190B00F0FF
(1665678336.170605) can0 18FFAD01#6900FFFF0000FFFF
(1665678336.170931) can0 18FFAE01#00FF00000000FFFF
(1665678336.172187) can0 18FBD600#FFFFFFFFFFFFFFFF
(1665678336.172523) can0 10FF0021#02000000FF3F4D3F
(1665678336.174354) can0 0CF00203#CC0000FFFF0000FF
(1665678336.174629) can0 1CEBFF00#010013C5803BC720
(1665678336.174960) can0 0CF00400#007D7D000000F07D
(1665678336.176631) can0 18F00E3D#00FB00FBFFFFFFFF
(1665678336.177064) can0 18F00F3D#00FB00FBFFFFFFFF
(1665678336.177329) can0 18FD3E00#FFFFFF4325FFFFFF
(1665678336.178896) can0 18F0090B#1F7D20697DE67D7D
(1665678336.180685) can0 18FEF117#FFFFFFFFFFFFFFF0
(1665678336.182707) can0 18FEF121#F7FFFFCFFFFFFFFF
(1665678336.184355) can0 0CF00203#CC0000FFFF0000FF
(1665678336.184609) can0 0CF00400#007D7D000000F07D
(1665678336.184898) can0 18FEF131#CFFFFFF700FFFF3F
(1665678336.187215) can0 18FD9B3D#FFFFFFFFFFFFFFFF
(1665678336.188685) can0 18FF0025#F0FF640A27003600
(1665678336.188946) can0 18F0090B#1F7D20687DE67D7D
(1665678336.191688) can0 14F00121#FFFFFFFFFFFFFFFF
(1665678336.192719) can0 1CFEC347#FFFFFFFFFFFFFFFF
(1665678336.194232) can0 0CF00300#D10000FFFF0C00FF
(1665678336.194490) can0 0CF00203#CC0000FFFF0000FF
(1665678336.194831) can0 0CF00400#007D7D000000F07D
(1665678336.198907) can0 18F0090B#1F7D20687DE67D7D
(1665678336.201430) can0 0CF00A01#00000000FFFFFFFF
(1665678336.201864) can0 10F01A01#409CFFFFFFFFFFFF
(1665678336.204334) can0 0CF00203#CC0000FFFF0000FF
(1665678336.204625) can0 0CF00400#007D7D000000F07D
(1665678336.207195) can0 0CF0233D#0000FFFFFF0CFFFF
(1665678336.208678) can0 0C0A0021#FCFFFFFFFFFFFFFF
(1665678336.208940) can0 18F0090B#1F7D20687DE67D7D
(1665678336.210698) can0 14F0010B#0F00FFFFFF0DFFFF
(1665678336.211525) can0 18FEBF0B#00007D7D7D7DFFFF
(1665678336.212682) can0 14FDC40B#1F085FFFFFFFFFFF
(1665678336.214366) can0 0CF00203#CC0000FFFF0000FF
(1665678336.214625) can0 1CEBFF0F#02FFFFFFFFFFFFFF
(1665678336.214950) can0 14FE4F0B#FF00FFFFFFFFFFFF
(1665678336.215209) can0 0CF00400#007D7D000000F07D
(1665678336.215575) can0 18FEDF00#7DFFFFFF7D0000FF
(1665678336.216679) can0 14FEF031#FFFFFFFFFFFFCCFF
(1665678336.217488) can0 18FD3C3D#0000FFFFFFCCFFFF
(1665678336.218701) can0 14FF07E6#FFFFFFFFFFFFFFFF
(1665678336.218959) can0 18F0090B#1F7D20687DE67D7D
(1665678336.222341) can0 10FF0021#02000000FF3F4D3F
(1665678336.224384) can0 0CF00203#CC0000FFFF0000FF
(1665678336.224655) can0 0CF00400#007D7D000000F07D
(1665678336.225052) can0 14FF0097#FFFFC3E501CECE00
(1665678336.226633) can0 18F00E3D#00FB00FBFFFFFFFF
(1665678336.226894) can0 18F00F3D#00FB00FBFFFFFFFF
(1665678336.228898) can0 18F0090B#1F7D20697DE67D7D
(1665678336.234336) can0 0CF00203#CC0000FFFF0000FF
(1665678336.234604) can0 1CEBFF00#021DE64027E96031
(1665678336.234925) can0 18F00131#FFFFCFFFFFFFFFFF
(1665678336.235169) can0 0CF00400#007D7D000000F07D
(1665678336.237203) can0 18FFA33D#0000FFFF8010FFFF
(1665678336.238901) can0 18F0090B#1F7D20697DE67D7D
(1665678336.244258) can0 0CF00300#D10000FFFF0C00FF
(1665678336.244511) can0 0CF00203#CC0000FFFF0000FF
(1665678336.244886) can0 0CF00400#007D7D000000F07D
(1665678336.247422) can0 18FFA43D#D606D606FFFFFCFF
(1665678336.248910) can0 18F0090B#1F7D206B7DE67D7D
(1665678336.251919) can0 0CF00A01#00000000FFFFFFFF
(1665678336.252314) can0 10F01A01#409CFFFFFFFFFFFF
(1665678336.252771) can0 10FCFD01#FFFFFFFF00000000
(1665678336.253182) can0 18FD9401#6841FFFF00000302
(1665678336.253635) can0 1CFE9201#FFDCADFFFFFFFFFF
(1665678336.254341) can0 0CF00203#CC0000FFFF0000FF
(1665678336.254601) can0 0CF00400#007D7D000000F07D
(1665678336.256437) can0 18FE9601#FFFFFFFFFF00FFFF
(1665678336.257086) can0 0CF0233D#0000FFFFFF0CFFFF
(1665678336.257353) can0 18FFA23D#0000F626E803340F
(1665678336.259208) can0 18F0090B#1F7D206B7DE67D7D
(1665678336.261232) can0 18FBD600#FFFFFFFFFFFFFFFF
(1665678336.264397) can0 0CF00203#CC0000FFFF0000FF
(1665678336.264678) can0 0CF00400#007D7D000000F07D
(1665678336.264999) can0 18FEDF00#7DFFFFFF7D0000FF
(1665678336.265272) can0 1892FE00#FFFFFFFFFF09FFFF
(1665678336.265567) can0 18F0000F#DF7D7DFF0F7DFF7D
(1665678336.265897) can0 18F00100#FFFFFFFF00FFFFFF
(1665678336.266189) can0 18F00503#7D00007DFFFFFFFF
(1665678336.266485) can0 18FEE000#2700360027003600
(1665678336.266813) can0 18FEF100#FF0000FCFFFF00FF
(1665678336.267077) can0 18FEF200#000000000000FFFF
(1665678336.267385) can0 18FFA03D#1A0D1A00190000FF
(1665678336.268897) can0 18F0090B#1F7D206B7DE67D7D
(1665678336.272336) can0 10FF0021#02000000FF3F4D3F
(1665678336.274333) can0 0CF00203#CC0000FFFF0000FF
(1665678336.274630) can0 1CEBFF0F#03FFFFDB05FFFFFF
(1665678336.274923) can0 0CF00400#007D7D000000F07D
(1665678336.276630) can0 18F00E3D#00FB00FBFFFFFFFF
(1665678336.277063) can0 18F00F3D#00FB00FBFFFFFFFF
(1665678336.277330) can0 18FD203D#46254625FFFFFFFF
(1665678336.277605) can0 18FFA13D#8B028B021AFFFF30
(1665678336.278895) can0 18F0090B#1F7D206B7DE67D7D
(1665678336.280684) can0 18FEF117#FFFFFFFFFFFFFFF0
(1665678336.282706) can0 18FEF121#F7FFFFCFFFFFFFFF
(1665678336.284338) can0 0CF00203#CC0000FFFF0000FF
(1665678336.284628) can0 0CF00400#007D7D000000F07D
(1665678336.284910) can0 18FEF131#CFFFFFF700FFFF3F
(1665678336.288900) can0 18F0090B#1F7D206B7DE67D7D
(1665678336.291685) can0 14F00121#FFFFFFFFFFFFFFFF
(1665678336.293462) can0 18FEE925#0000000058950400
(1665678336.294205) can0 0CF00300#D10000FFFF0C00FF
(1665678336.294481) can0 0CF00203#CC0000FFFF0000FF
(1665678336.294817) can0 1CEBFF00#03EA0F3DFFFF1009
(1665678336.295104) can0 0CF00400#007D7D000000F07D
(1665678336.298896) can0 18F0090B#1F7D20697DE67D7D
(1665678336.301647) can0 0CF00A01#00000000FFFFFFFF
(1665678336.302103) can0 10F01A01#409CFFFFFFFFFFFF
(1665678336.304336) can0 0CF00203#CC0000FFFF0000FF
(1665678336.304629) can0 0CF00400#007D7D000000F07D
(1665678336.307198) can0 0CF0233D#0000FFFFFF0CFFFF
(1665678336.308678) can0 0C0A0021#FCFFFFFFFFFFFFFF
(1665678336.308937) can0 18F0090B#1F7D20697DE67D7D
(1665678336.310696) can0 14F0010B#0F00FFFFFF0DFFFF
(1665678336.311527) can0 18FEBF0B#00007D7D7D7DFFFF
(1665678336.312677) can0 14FDC40B#1F085FFFFFFFFFFF
(1665678336.314343) can0 0CF00203#CC0000FFFF0000FF
(1665678336.314621) can0 0CF00400#007D7D000000F07D
(1665678336.314914) can0 14FE4F0B#FF00FFFFFFFFFFFF
(1665678336.315241) can0 18FEDF00#7DFFFFFF7D0000FF
(1665678336.316698) can0 14FEF031#FFFFFFFFFFFFCCFF
(1665678336.318692) can0 14FF07E6#FFFFFFFFFFFFFFFF
(1665678336.318959) can0 18F0090B#1F7D20687DE67D7D
(1665678336.322342) can0 10FF0021#02000000FF3F4D3F
(1665678336.324404) can0 0CF00203#CC0000FFFF0000FF
(1665678336.324637) can0 0CF00400#007D7D000000F07D
(1665678336.326631) can0 18F00E3D#00FB00FBFFFFFFFF
(1665678336.326873) can0 14FF0097#FFFFC3E501CECE00
(1665678336.327181) can0 18F00F3D#00FB00FBFFFFFFFF
(1665678336.328910) can0 18F0090B#1F7D20687DE67D7D
(1665678336.334343) can0 0CF00203#CC0000FFFF0000FF
(1665678336.334618) can0 0CF00400#007D7D000000F07D
(1665678336.334901) can0 18F00131#FFFFCFFFFFFFFFFF
(1665678336.338901) can0 18F0090B#1F7D20687DE67D7D
(1665678336.344225) can0 0CF00300#D10000FFFF0C00FF
(1665678336.344519) can0 0CF00203#CC0000FFFF0000FF
(1665678336.344809) can0 0CF00400#007D7D000000F07D
(1665678336.348902) can0 18F0090B#1F7D20667DE67D7D
(1665678336.351914) can0 0CF00A01#00000000FFFFFFFF
(1665678336.352371) can0 10F01A01#409CFFFFFFFFFFFF
(1665678336.352613) can0 10FCFD01#FFFFFFFF00000000
(1665678336.352897) can0 18FD9401#6841FFFF00000302
(1665678336.353258) can0 1CFE9201#FFDCADFFFFFFFFFF
(1665678336.354358) can0 0CF00203#CC0000FFFF0000FF
(1665678336.354618) can0 1CEBFF00#040F4C32FFFFFFFF
(1665678336.354972) can0 0CF00400#007D7D000000F07D
(1665678336.356021) can0 18FE9601#FFFFFFFFFF00FFFF
(1665678336.356988) can0 0CF0233D#0000FFFFFF0CFFFF
(1665678336.358903) can0 18F0090B#1F7D20667DE67D7D
(1665678336.361235) can0 18FBD600#FFFFFFFFFFFFFFFF
(1665678336.364425) can0 0CF00203#CC0000FFFF0000FF
(1665678336.364670) can0 0CF00400#007D7D000000F07D
(1665678336.365008) can0 18FEDF00#7DFFFFFF7D0000FF
(1665678336.365271) can0 1892FE00#FFFFFFFFFF09FFFF
(1665678336.365610) can0 18F0000F#DF7D7DFF0F7DFF7D
(1665678336.365871) can0 18F00100#FFFFFFFF00FFFFFF
(1665678336.366234) can0 18F00503#7D00007DFFFFFFFF
(1665678336.366475) can0 18FEE000#2700360027003600
(1665678336.366827) can0 18FEF100#FF0000FCFFFF00FF
(1665678336.367080) can0 18FEF200#000000000000FFFF
(1665678336.368906) can0 18F0090B#1F7D20667DE67D7D
(1665678336.372349) can0 10FF0021#02000000FF3F4D3F
(1665678336.374364) can0 0CF00203#CC0000FFFF0000FF
(1665678336.374626) can0 0CF00400#007D7D000000F07D
(1665678336.376632) can0 18F00E3D#00FB00FBFFFFFFFF
(1665678336.377069) can0 18F00F3D#00FB00FBFFFFFFFF
(1665678336.378921) can0 18F0090B#1F7D20667DE67D7D
(1665678336.380697) can0 18FEF117#FFFFFFFFFFFFFFF0
(1665678336.382717) can0 18FEF121#F7FFFFCFFFFFFFFF
(1665678336.384356) can0 0CF00203#CC0000FFFF0000FF
(1665678336.384644) can0 0CF00400#007D7D000000F07D
(1665678336.384916) can0 18FEF131#CFFFFFF700FFFF3F
(1665678336.388922) can0 18F0090B#1F7D20667DE67D7D
(1665678336.391660) can0 14F00121#FFFFFFFFFFFFFFFF
(1665678336.394235) can0 0CF00300#D10000FFFF0C00FF
(1665678336.394505) can0 0CF00203#CC0000FFFF0000FF
(1665678336.394795) can0 0CF00400#007D7D000000F07D
(1665678336.398903) can0 18F0090B#1F7D20667DE67D7D
(1665678336.401427) can0 0CF00A01#00000000FFFFFFFF
(1665678336.401885) can0 10F01A01#409CFFFFFFFFFFFF
(1665678336.404360) can0 0CF00203#CC0000FFFF0000FF
(1665678336.404649) can0 0CF00400#007D7D000000F07D
(1665678336.407193) can0 0CF0233D#0000FFFFFF0CFFFF
(1665678336.408694) can0 0C0A0021#FCFFFFFFFFFFFFFF
(1665678336.408930) can0 18F0090B#1F7D20687DE67D7D
(1665678336.410692) can0 14F0010B#0F00FFFFFF0DFFFF
(1665678336.411525) can0 18FEBF0B#00007D7D7D7DFFFF
(1665678336.412692) can0 14FDC40B#1F085FFFFFFFFFFF
(1665678336.414340) can0 0CF00203#CC0000FFFF0000FF
(1665678336.414627) can0 1CEBFF00#05FFFF3B01FFFFFF
(1665678336.414911) can0 14FE4F0B#FF00FFFFFFFFFFFF
(1665678336.415235) can0 0CF00400#007D7D000000F07D
(1665678336.415493) can0 18FEDF00#7DFFFFFF7D0000FF
(1665678336.416695) can0 14FEF031#FFFFFFFFFFFFCCFF
(1665678336.418692) can0 14FF07E6#FFFFFFFFFFFFFFFF
(1665678336.418932) can0 18F0090B#1F7D20687DE67D7D
(1665678336.422353) can0 10FF0021#02000000FF3F4D3F
(1665678336.424279) can0 18FDB300#FFFF4625FFFFFFFF
(1665678336.424542) can0 0CF00203#CC0000FFFF0000FF
(1665678336.424906) can0 0CF00400#007D7D000000F07D
(1665678336.425117) can0 18FDB43D#46254625FFFFFFFF
(1665678336.425485) can0 18FEF600#FF004130FFFFFFFF
(1665678336.425717) can0 18FEFC00#FFC6FFFFFFFFFFFF
(1665678336.426622) can0 18F00E3D#00FB00FBFFFFFFFF
(1665678336.426885) can0 18F00F3D#00FB00FBFFFFFFFF
(1665678336.428014) can0 14FF0097#FFFFC3E501CECE00
(1665678336.428907) can0 18F0090B#1F7D20687DE67D7D
(1665678336.434337) can0 0CF00203#CC0000FFFF0000FF
(1665678336.434610) can0 0CF00400#007D7D000000F07D
(1665678336.434889) can0 18F00131#FFFFCFFFFFFFFFFF
(1665678336.439110) can0 18F0090B#1F7D20687DE67D7D
(1665678336.444243) can0 0CF00300#D10000FFFF0C00FF
(1665678336.444505) can0 0CF00203#CC0000FFFF0000FF
(1665678336.444893) can0 0CF00400#007D7D000000F07D
(1665678336.448905) can0 18F0090B#1F7D20687DE67D7D
(1665678336.451938) can0 0CF00A01#00000000FFFFFFFF
(1665678336.452525) can0 10F01A01#409CFFFFFFFFFFFF
(1665678336.452713) can0 10FCFD01#FFFFFFFF00000000
(1665678336.452986) can0 18FD9401#6841FFFF00000302
(1665678336.453310) can0 1CFE9201#FFDCADFFFFFFFFFF
(1665678336.454540) can0 0CF00203#CC0000FFFF0000FF
(1665678336.454728) can0 0CF00400#007D7D000000F07D
(1665678336.456036) can0 18FE9601#FFFFFFFFFF00FFFF
(1665678336.457226) can0 0CF0233D#0000FFFFFF0CFFFF
